! NanoVNA-App by OneOfEleven et al v1.1.209 (+OD18) 
! Date: 2025-07-14 21:09:38
! Start: 28MHz Stop: 30MHz Points: 801
! S-Parameter data: F S11 S21 S12 S22
# Hz S RI R 50
!     Frequency           S11_Real           S11_Imag           S21_Real           S21_Imag           S12_Real           S12_Imag           S22_Real           S22_Imag
       28000000   -2.485264838e-01   -7.891135216e-01   -5.647435319e-05    4.546729542e-05    0.000000000e+00    0.000000000e+00    0.000000000e+00    0.000000000e+00
       28002500   -2.514498234e-01   -7.873898745e-01    3.497780199e-05   -1.168761901e-05    0.000000000e+00    0.000000000e+00    0.000000000e+00    0.000000000e+00
       28005000   -2.541989386e-01   -7.853754163e-01    7.645963342e-05    1.046381003e-04    0.000000000e+00    0.000000000e+00    0.000000000e+00    0.000000000e+00
       28007500   -2.571858168e-01   -7.832196355e-01    2.398183096e-05    2.509585647e-05    0.000000000e+00    0.000000000e+00    0.000000000e+00    0.000000000e+00
       28010000   -2.601296008e-01   -7.812205553e-01    5.027303632e-05    5.869096276e-05    0.000000000e+00    0.000000000e+00    0.000000000e+00    0.000000000e+00
       28012500   -2.629820406e-01   -7.790022492e-01    3.127473610e-05    8.497887757e-05    0.000000000e+00    0.000000000e+00    0.000000000e+00    0.000000000e+00
       28015000   -2.659874856e-01   -7.768700123e-01    6.517839211e-05    6.236078207e-06    0.000000000e+00    0.000000000e+00    0.000000000e+00    0.000000000e+00
       28017500   -2.686829269e-01   -7.746154070e-01    2.187329301e-05    8.841288945e-05    0.000000000e+00    0.000000000e+00    0.000000000e+00    0.000000000e+00
       28020000   -2.717181444e-01   -7.726691365e-01    3.073510743e-05    1.918049747e-05    0.000000000e+00    0.000000000e+00    0.000000000e+00    0.000000000e+00
       28022500   -2.746165097e-01   -7.703684568e-01   -2.223792035e-05    1.793488445e-05    0.000000000e+00    0.000000000e+00    0.000000000e+00    0.000000000e+00
       28025000   -2.774422467e-01   -7.682052851e-01   -2.991148904e-06    2.011324796e-05    0.000000000e+00    0.000000000e+00    0.000000000e+00    0.000000000e+00
       28027500   -2.804221809e-01   -7.660826445e-01   -3.870497676e-05    3.091754934e-06    0.000000000e+00    0.000000000e+00    0.000000000e+00    0.000000000e+00
       28030000   -2.831448317e-01   -7.638677955e-01    2.538508670e-05    8.397224519e-06    0.000000000e+00    0.000000000e+00    0.000000000e+00    0.000000000e+00
       28032500   -2.860630453e-01   -7.614700198e-01    2.061556916e-05    7.739023567e-05    0.000000000e+00    0.000000000e+00    0.000000000e+00    0.000000000e+00
       28035000   -2.889232337e-01   -7.591329813e-01   -8.612341844e-06    5.828076610e-05    0.000000000e+00    0.000000000e+00    0.000000000e+00    0.000000000e+00
       28037500   -2.917550504e-01   -7.568361163e-01    2.795432192e-05   -5.401628187e-06    0.000000000e+00    0.000000000e+00    0.000000000e+00    0.000000000e+00
       28040000   -2.944957018e-01   -7.545258999e-01    7.642116543e-05    1.877097748e-05    0.000000000e+00    0.000000000e+00    0.000000000e+00    0.000000000e+00
       28042500   -2.973399162e-01   -7.521166205e-01    9.466120900e-06   -2.051455704e-05    0.000000000e+00    0.000000000e+00    0.000000000e+00    0.000000000e+00
       28045000   -3.003158867e-01   -7.497333288e-01   -3.505270070e-05   -1.298212101e-05    0.000000000e+00    0.000000000e+00    0.000000000e+00    0.000000000e+00
       28047500   -3.032159209e-01   -7.474351525e-01    4.797780639e-05    3.082111289e-05    0.000000000e+00    0.000000000e+00    0.000000000e+00    0.000000000e+00
       28050000   -3.059259951e-01   -7.450392842e-01    4.122035534e-05    6.087995280e-05    0.000000000e+00    0.000000000e+00    0.000000000e+00    0.000000000e+00
       28052500   -3.086784780e-01   -7.424920797e-01   -4.503366654e-05    7.260211714e-05    0.000000000e+00    0.000000000e+00    0.000000000e+00    0.000000000e+00
       28055000   -3.114841282e-01   -7.399916053e-01    2.264832983e-05    1.091011072e-04    0.000000000e+00    0.000000000e+00    0.000000000e+00    0.000000000e+00
       28057500   -3.143487573e-01   -7.375951409e-01    4.579711822e-05    1.736363811e-05    0.000000000e+00    0.000000000e+00    0.000000000e+00    0.000000000e+00
       28060000   -3.169769347e-01   -7.351040244e-01    6.927175855e-05    6.789209147e-05    0.000000000e+00    0.000000000e+00    0.000000000e+00    0.000000000e+00
       28062500   -3.198924959e-01   -7.325655818e-01    4.201813135e-05    1.354775395e-05    0.000000000e+00    0.000000000e+00    0.000000000e+00    0.000000000e+00
       28065000   -3.227768838e-01   -7.298926711e-01    5.822678213e-05    6.317569205e-05    0.000000000e+00    0.000000000e+00    0.000000000e+00    0.000000000e+00
       28067500   -3.255081475e-01   -7.272464037e-01    2.720162774e-05    2.299835614e-06    0.000000000e+00    0.000000000e+00    0.000000000e+00    0.000000000e+00
       28070000   -3.282305300e-01   -7.246910334e-01    2.418228178e-05    7.187712617e-05    0.000000000e+00    0.000000000e+00    0.000000000e+00    0.000000000e+00
       28072500   -3.310124278e-01   -7.221699953e-01    2.727468927e-05    3.711331738e-05    0.000000000e+00    0.000000000e+00    0.000000000e+00    0.000000000e+00
       28075000   -3.337824643e-01   -7.195293307e-01    4.295197141e-05    9.842314284e-06    0.000000000e+00    0.000000000e+00    0.000000000e+00    0.000000000e+00
       28077500   -3.365967274e-01   -7.165802121e-01   -2.729058906e-05    1.950716614e-05    0.000000000e+00    0.000000000e+00    0.000000000e+00    0.000000000e+00
       28080000   -3.390977085e-01   -7.139543891e-01    1.614822577e-05    7.630675100e-05    0.000000000e+00    0.000000000e+00    0.000000000e+00    0.000000000e+00
       28082500   -3.420471251e-01   -7.111904025e-01    7.142413961e-05    3.053095861e-05    0.000000000e+00    0.000000000e+00    0.000000000e+00    0.000000000e+00
       28085000   -3.446403444e-01   -7.084499598e-01    5.212140240e-05    5.591660010e-05    0.000000000e+00    0.000000000e+00    0.000000000e+00    0.000000000e+00
       28087500   -3.473764956e-01   -7.056557536e-01    3.835344251e-05    1.139455981e-05    0.000000000e+00    0.000000000e+00    0.000000000e+00    0.000000000e+00
       28090000   -3.499718904e-01   -7.027929425e-01   -3.448036296e-06    2.791697807e-05    0.000000000e+00    0.000000000e+00    0.000000000e+00    0.000000000e+00
       28092500   -3.526390791e-01   -6.999495625e-01    5.704601790e-05    3.583731086e-05    0.000000000e+00    0.000000000e+00    0.000000000e+00    0.000000000e+00
       28095000   -3.552919030e-01   -6.972434521e-01    8.080121916e-06    5.597879863e-05    0.000000000e+00    0.000000000e+00    0.000000000e+00    0.000000000e+00
       28097500   -3.580258489e-01   -6.943145990e-01    2.401170320e-07    5.226006397e-05    0.000000000e+00    0.000000000e+00    0.000000000e+00    0.000000000e+00
       28100000   -3.607580960e-01   -6.914206147e-01    4.976790660e-05    1.796475226e-05    0.000000000e+00    0.000000000e+00    0.000000000e+00    0.000000000e+00
       28102500   -3.631248772e-01   -6.885547042e-01   -2.366201102e-07   -2.594564285e-05    0.000000000e+00    0.000000000e+00    0.000000000e+00    0.000000000e+00
       28105000   -3.659264147e-01   -6.856808662e-01    6.386046152e-05    2.245089127e-05    0.000000000e+00    0.000000000e+00    0.000000000e+00    0.000000000e+00
       28107500   -3.685405552e-01   -6.825280190e-01    2.710990884e-05   -1.609179708e-05    0.000000000e+00    0.000000000e+00    0.000000000e+00    0.000000000e+00
       28110000   -3.710067272e-01   -6.796494722e-01    1.040755615e-05    6.515128916e-05    0.000000000e+00    0.000000000e+00    0.000000000e+00    0.000000000e+00
       28112500   -3.737494349e-01   -6.766638756e-01    3.018190182e-05    7.459251356e-05    0.000000000e+00    0.000000000e+00    0.000000000e+00    0.000000000e+00
       28115000   -3.763456345e-01   -6.736865044e-01    4.957452347e-06    4.589226955e-05    0.000000000e+00    0.000000000e+00    0.000000000e+00    0.000000000e+00
       28117500   -3.788616955e-01   -6.705153584e-01    4.298401836e-05    2.417620271e-05    0.000000000e+00    0.000000000e+00    0.000000000e+00    0.000000000e+00
       28120000   -3.812021911e-01   -6.675334573e-01    4.715266914e-05    1.458156748e-05    0.000000000e+00    0.000000000e+00    0.000000000e+00    0.000000000e+00
       28122500   -3.839324415e-01   -6.644446850e-01    4.166036524e-05    4.480255029e-06    0.000000000e+00    0.000000000e+00    0.000000000e+00    0.000000000e+00
       28125000   -3.864465058e-01   -6.611705422e-01    5.233864431e-05    8.147653716e-06    0.000000000e+00    0.000000000e+00    0.000000000e+00    0.000000000e+00
       28127500   -3.889143467e-01   -6.581202745e-01   -2.305812450e-05    6.606001989e-05    0.000000000e+00    0.000000000e+00    0.000000000e+00    0.000000000e+00
       28130000   -3.913746178e-01   -6.548956037e-01    2.857393156e-05    5.040293763e-05    0.000000000e+00    0.000000000e+00    0.000000000e+00    0.000000000e+00
       28132500   -3.937980831e-01   -6.517243385e-01    2.413636867e-05    1.870286360e-05    0.000000000e+00    0.000000000e+00    0.000000000e+00    0.000000000e+00
       28135000   -3.962921202e-01   -6.483321786e-01    6.053509060e-05    2.195044908e-05    0.000000000e+00    0.000000000e+00    0.000000000e+00    0.000000000e+00
       28137500   -3.987287283e-01   -6.451621652e-01    3.662750169e-05    2.851302452e-05    0.000000000e+00    0.000000000e+00    0.000000000e+00    0.000000000e+00
       28140000   -4.011963904e-01   -6.419653893e-01   -1.423640333e-05    8.298210014e-05    0.000000000e+00    0.000000000e+00    0.000000000e+00    0.000000000e+00
       28142500   -4.035753310e-01   -6.387529969e-01    2.079497244e-05   -1.621360752e-05    0.000000000e+00    0.000000000e+00    0.000000000e+00    0.000000000e+00
       28145000   -4.059228003e-01   -6.352793574e-01    1.880671880e-05    1.482936113e-05    0.000000000e+00    0.000000000e+00    0.000000000e+00    0.000000000e+00
       28147500   -4.083001018e-01   -6.320266724e-01    7.512874436e-05    2.857667278e-05    0.000000000e+00    0.000000000e+00    0.000000000e+00    0.000000000e+00
       28150000   -4.105384648e-01   -6.287289858e-01    5.426317875e-05    2.248520286e-05    0.000000000e+00    0.000000000e+00    0.000000000e+00    0.000000000e+00
       28152500   -4.129521251e-01   -6.253399849e-01   -2.775601206e-05    4.455850285e-05    0.000000000e+00    0.000000000e+00    0.000000000e+00    0.000000000e+00
       28155000   -4.153621197e-01   -6.218602061e-01    5.563524974e-05   -1.459172927e-05    0.000000000e+00    0.000000000e+00    0.000000000e+00    0.000000000e+00
       28157500   -4.175264537e-01   -6.184064150e-01    5.919020623e-05    6.657291578e-06    0.000000000e+00    0.000000000e+00    0.000000000e+00    0.000000000e+00
       28160000   -4.197810888e-01   -6.151399016e-01   -2.637240686e-05    4.502942829e-05    0.000000000e+00    0.000000000e+00    0.000000000e+00    0.000000000e+00
       28162500   -4.221879840e-01   -6.117072701e-01    3.941344403e-05    4.211338091e-05    0.000000000e+00    0.000000000e+00    0.000000000e+00    0.000000000e+00
       28165000   -4.244138002e-01   -6.080327630e-01    3.755141370e-05    9.026880434e-05    0.000000000e+00    0.000000000e+00    0.000000000e+00    0.000000000e+00
       28167500   -4.265834987e-01   -6.045662761e-01    1.615853216e-05    3.685788442e-06    0.000000000e+00    0.000000000e+00    0.000000000e+00    0.000000000e+00
       28170000   -4.288788140e-01   -6.010632515e-01    1.397869528e-05    6.102874249e-05    0.000000000e+00    0.000000000e+00    0.000000000e+00    0.000000000e+00
       28172500   -4.309094250e-01   -5.975162983e-01    4.561905735e-05    8.822359814e-05    0.000000000e+00    0.000000000e+00    0.000000000e+00    0.000000000e+00
       28175000   -4.330058694e-01   -5.940145254e-01   -7.640026070e-07   -5.545917156e-05    0.000000000e+00    0.000000000e+00    0.000000000e+00    0.000000000e+00
       28177500   -4.352110326e-01   -5.903952718e-01    3.179127089e-05    2.046500049e-05    0.000000000e+00    0.000000000e+00    0.000000000e+00    0.000000000e+00
       28180000   -4.373693764e-01   -5.867881179e-01    3.902594472e-05    2.995680006e-05    0.000000000e+00    0.000000000e+00    0.000000000e+00    0.000000000e+00
       28182500   -4.393892586e-01   -5.829855800e-01    1.008059917e-05    3.372188803e-05    0.000000000e+00    0.000000000e+00    0.000000000e+00    0.000000000e+00
       28185000   -4.413460791e-01   -5.794653296e-01    6.497833965e-05    2.908174793e-05    0.000000000e+00    0.000000000e+00    0.000000000e+00    0.000000000e+00
       28187500   -4.433972538e-01   -5.757218003e-01    4.058524428e-05    1.007312676e-05    0.000000000e+00    0.000000000e+00    0.000000000e+00    0.000000000e+00
       28190000   -4.454457462e-01   -5.719822645e-01    2.440154640e-05    3.734005077e-06    0.000000000e+00    0.000000000e+00    0.000000000e+00    0.000000000e+00
       28192500   -4.474772215e-01   -5.682780147e-01    3.683988689e-05    4.247152538e-05    0.000000000e+00    0.000000000e+00    0.000000000e+00    0.000000000e+00
       28195000   -4.495317340e-01   -5.645644069e-01    6.229727296e-05    3.458498031e-05    0.000000000e+00    0.000000000e+00    0.000000000e+00    0.000000000e+00
       28197500   -4.513451457e-01   -5.607639551e-01    4.445818195e-05   -7.373185781e-06    0.000000000e+00    0.000000000e+00    0.000000000e+00    0.000000000e+00
       28200000   -4.535273015e-01   -5.570049882e-01   -1.091756894e-05    3.610271960e-05    0.000000000e+00    0.000000000e+00    0.000000000e+00    0.000000000e+00
       28202500   -4.552981853e-01   -5.532114506e-01    3.222331725e-05    2.080071863e-05    0.000000000e+00    0.000000000e+00    0.000000000e+00    0.000000000e+00
       28205000   -4.570881426e-01   -5.494428277e-01    1.314869587e-05    5.759392479e-06    0.000000000e+00    0.000000000e+00    0.000000000e+00    0.000000000e+00
       28207500   -4.591147006e-01   -5.454980731e-01    8.212394459e-05   -3.750664837e-05    0.000000000e+00    0.000000000e+00    0.000000000e+00    0.000000000e+00
       28210000   -4.606848955e-01   -5.415863991e-01    6.221581771e-06   -3.755696525e-06    0.000000000e+00    0.000000000e+00    0.000000000e+00    0.000000000e+00
       28212500   -4.627224803e-01   -5.378157496e-01    2.301743734e-05    8.614271792e-06    0.000000000e+00    0.000000000e+00    0.000000000e+00    0.000000000e+00
       28215000   -4.644579887e-01   -5.338874459e-01    2.442337177e-07    5.815029726e-05    0.000000000e+00    0.000000000e+00    0.000000000e+00    0.000000000e+00
       28217500   -4.662207663e-01   -5.299371481e-01   -2.628726747e-07   -2.397402750e-05    0.000000000e+00    0.000000000e+00    0.000000000e+00    0.000000000e+00
       28220000   -4.678948522e-01   -5.260096788e-01   -2.467939339e-05    3.760474647e-05    0.000000000e+00    0.000000000e+00    0.000000000e+00    0.000000000e+00
       28222500   -4.696771502e-01   -5.220395923e-01    3.381198621e-05    4.847075979e-05    0.000000000e+00    0.000000000e+00    0.000000000e+00    0.000000000e+00
       28225000   -4.712498486e-01   -5.180863142e-01    5.393948231e-05    1.118649379e-06    0.000000000e+00    0.000000000e+00    0.000000000e+00    0.000000000e+00
       28227500   -4.729548991e-01   -5.141854286e-01    9.631833564e-06    2.366627450e-05    0.000000000e+00    0.000000000e+00    0.000000000e+00    0.000000000e+00
       28230000   -4.744233489e-01   -5.101415515e-01   -3.928007936e-05   -1.167158462e-05    0.000000000e+00    0.000000000e+00    0.000000000e+00    0.000000000e+00
       28232500   -4.762367606e-01   -5.061416626e-01    3.595026647e-05    3.304439588e-06    0.000000000e+00    0.000000000e+00    0.000000000e+00    0.000000000e+00
       28235000   -4.776553214e-01   -5.022245049e-01    6.944142660e-05    1.342613541e-05    0.000000000e+00    0.000000000e+00    0.000000000e+00    0.000000000e+00
       28237500   -4.791892767e-01   -4.980425835e-01    4.569538578e-05    4.833356797e-05    0.000000000e+00    0.000000000e+00    0.000000000e+00    0.000000000e+00
       28240000   -4.807183146e-01   -4.939492345e-01   -1.421923844e-05    9.970544488e-05    0.000000000e+00    0.000000000e+00    0.000000000e+00    0.000000000e+00
       28242500   -4.822666049e-01   -4.899798930e-01   -2.231598228e-05    5.641429016e-05    0.000000000e+00    0.000000000e+00    0.000000000e+00    0.000000000e+00
       28245000   -4.835297465e-01   -4.857822061e-01    1.232708564e-05    4.454064765e-05    0.000000000e+00    0.000000000e+00    0.000000000e+00    0.000000000e+00
       28247500   -4.849927425e-01   -4.816770852e-01    3.181803913e-05    3.644885874e-05    0.000000000e+00    0.000000000e+00    0.000000000e+00    0.000000000e+00
       28250000   -4.862950742e-01   -4.776908457e-01    2.183186734e-05   -5.086545207e-05    0.000000000e+00    0.000000000e+00    0.000000000e+00    0.000000000e+00
       28252500   -4.877626002e-01   -4.735043049e-01    1.507137586e-05    9.679682080e-06    0.000000000e+00    0.000000000e+00    0.000000000e+00    0.000000000e+00
       28255000   -4.889973402e-01   -4.695597291e-01    1.482802509e-05   -8.105589586e-06    0.000000000e+00    0.000000000e+00    0.000000000e+00    0.000000000e+00
       28257500   -4.902680218e-01   -4.653230309e-01    1.742423774e-05    5.720085392e-05    0.000000000e+00    0.000000000e+00    0.000000000e+00    0.000000000e+00
       28260000   -4.914941788e-01   -4.611469209e-01   -2.767726528e-06    3.562586062e-05    0.000000000e+00    0.000000000e+00    0.000000000e+00    0.000000000e+00
       28262500   -4.927545190e-01   -4.568587840e-01    1.007753144e-05   -4.894955509e-06    0.000000000e+00    0.000000000e+00    0.000000000e+00    0.000000000e+00
       28265000   -4.941396713e-01   -4.527712762e-01    1.228056772e-05    3.181977718e-06    0.000000000e+00    0.000000000e+00    0.000000000e+00    0.000000000e+00
       28267500   -4.951366782e-01   -4.484955370e-01   -7.317032214e-06    1.821708793e-05    0.000000000e+00    0.000000000e+00    0.000000000e+00    0.000000000e+00
       28270000   -4.963222444e-01   -4.443087578e-01    4.167714724e-05   -3.017737072e-05    0.000000000e+00    0.000000000e+00    0.000000000e+00    0.000000000e+00
       28272500   -4.973555803e-01   -4.399958849e-01   -2.704288636e-05    6.492946795e-06    0.000000000e+00    0.000000000e+00    0.000000000e+00    0.000000000e+00
       28275000   -4.984744489e-01   -4.357591569e-01    2.224731907e-05   -1.917515510e-05    0.000000000e+00    0.000000000e+00    0.000000000e+00    0.000000000e+00
       28277500   -4.995548725e-01   -4.315864444e-01   -3.615755122e-05    3.122059934e-05    0.000000000e+00    0.000000000e+00    0.000000000e+00    0.000000000e+00
       28280000   -5.005106330e-01   -4.272348881e-01    3.659323193e-05    1.039293966e-05    0.000000000e+00    0.000000000e+00    0.000000000e+00    0.000000000e+00
       28282500   -5.014823079e-01   -4.231309593e-01   -4.819958576e-06    5.549317211e-05    0.000000000e+00    0.000000000e+00    0.000000000e+00    0.000000000e+00
       28285000   -5.025014877e-01   -4.186199903e-01    5.579421486e-05    2.367329762e-05    0.000000000e+00    0.000000000e+00    0.000000000e+00    0.000000000e+00
       28287500   -5.033216476e-01   -4.145410955e-01   -2.131166184e-05    6.249442231e-05    0.000000000e+00    0.000000000e+00    0.000000000e+00    0.000000000e+00
       28290000   -5.043233037e-01   -4.099881053e-01    5.157204669e-06    5.903435886e-05    0.000000000e+00    0.000000000e+00    0.000000000e+00    0.000000000e+00
