! NanoVNA-App by OneOfEleven et al v1.1.209 (+OD18) 
! Date: 2025-07-14 21:08:03
! Start: 27MHz Stop: 30MHz Points: 801
! S-Parameter data: F S11 S21 S12 S22
# Hz S RI R 50
!     Frequency           S11_Real           S11_Imag           S21_Real           S21_Imag           S12_Real           S12_Imag           S22_Real           S22_Imag
       27000000    5.718230605e-01   -7.793791890e-01    1.695126002e-06    1.042539516e-04    0.000000000e+00    0.000000000e+00    0.000000000e+00    0.000000000e+00
       27003750    5.700321794e-01   -7.805572748e-01   -3.237411875e-05    3.743438356e-05    0.000000000e+00    0.000000000e+00    0.000000000e+00    0.000000000e+00
       27007500    5.685442090e-01   -7.818862796e-01   -4.002987407e-05    4.343995533e-05    0.000000000e+00    0.000000000e+00    0.000000000e+00    0.000000000e+00
       27011250    5.668457747e-01   -7.829933167e-01   -1.184484972e-05    5.164313188e-05    0.000000000e+00    0.000000000e+00    0.000000000e+00    0.000000000e+00
       27015000    5.651233792e-01   -7.843296528e-01   -2.836399653e-05    6.631393626e-05    0.000000000e+00    0.000000000e+00    0.000000000e+00    0.000000000e+00
       27018750    5.633020997e-01   -7.855921388e-01    1.906642683e-05   -4.871213150e-06    0.000000000e+00    0.000000000e+00    0.000000000e+00    0.000000000e+00
       27022500    5.616695881e-01   -7.868757248e-01   -8.596756743e-06    4.842605267e-05    0.000000000e+00    0.000000000e+00    0.000000000e+00    0.000000000e+00
       27026250    5.599094629e-01   -7.882264256e-01   -4.836633889e-05    5.055419388e-05    0.000000000e+00    0.000000000e+00    0.000000000e+00    0.000000000e+00
       27030000    5.581206679e-01   -7.895343900e-01   -4.994112896e-05    3.944896889e-05    0.000000000e+00    0.000000000e+00    0.000000000e+00    0.000000000e+00
       27033750    5.562623143e-01   -7.908073068e-01   -2.209111335e-05    5.792446609e-05    0.000000000e+00    0.000000000e+00    0.000000000e+00    0.000000000e+00
       27037500    5.546033978e-01   -7.919079661e-01    1.368113317e-05    7.415827713e-05    0.000000000e+00    0.000000000e+00    0.000000000e+00    0.000000000e+00
       27041250    5.529475212e-01   -7.932801843e-01   -5.200351370e-05    7.334098336e-05    0.000000000e+00    0.000000000e+00    0.000000000e+00    0.000000000e+00
       27045000    5.510516167e-01   -7.943590879e-01    2.124534694e-05   -8.482445992e-06    0.000000000e+00    0.000000000e+00    0.000000000e+00    0.000000000e+00
       27048750    5.495136976e-01   -7.954860926e-01   -3.398374611e-05    5.501348642e-05    0.000000000e+00    0.000000000e+00    0.000000000e+00    0.000000000e+00
       27052500    5.478093028e-01   -7.968938947e-01   -3.201541631e-06    6.825385208e-05    0.000000000e+00    0.000000000e+00    0.000000000e+00    0.000000000e+00
       27056250    5.457121134e-01   -7.981321216e-01   -4.275836181e-05    4.918823470e-05    0.000000000e+00    0.000000000e+00    0.000000000e+00    0.000000000e+00
       27060000    5.441697240e-01   -7.995055318e-01   -2.665680950e-05    8.220663585e-05    0.000000000e+00    0.000000000e+00    0.000000000e+00    0.000000000e+00
       27063750    5.423758030e-01   -8.005433083e-01    9.323913218e-06    6.413007941e-05    0.000000000e+00    0.000000000e+00    0.000000000e+00    0.000000000e+00
       27067500    5.405877233e-01   -8.018130064e-01   -3.964246389e-06    7.199105312e-05    0.000000000e+00    0.000000000e+00    0.000000000e+00    0.000000000e+00
       27071250    5.387787223e-01   -8.028960824e-01    1.001843339e-05    8.106099267e-05    0.000000000e+00    0.000000000e+00    0.000000000e+00    0.000000000e+00
       27075000    5.369560719e-01   -8.042794466e-01   -2.607258102e-05    4.112960960e-05    0.000000000e+00    0.000000000e+00    0.000000000e+00    0.000000000e+00
       27078750    5.352351665e-01   -8.053340912e-01   -2.735541602e-05    6.769426545e-05    0.000000000e+00    0.000000000e+00    0.000000000e+00    0.000000000e+00
       27082500    5.332019925e-01   -8.064688444e-01   -8.399407307e-06    7.097145135e-05    0.000000000e+00    0.000000000e+00    0.000000000e+00    0.000000000e+00
       27086250    5.315902233e-01   -8.080453873e-01   -1.133149090e-05    6.930434756e-05    0.000000000e+00    0.000000000e+00    0.000000000e+00    0.000000000e+00
       27090000    5.296134949e-01   -8.089832664e-01   -3.360311894e-05    9.763763046e-06    0.000000000e+00    0.000000000e+00    0.000000000e+00    0.000000000e+00
       27093750    5.277487040e-01   -8.103777766e-01   -1.144934231e-05    6.899267464e-05    0.000000000e+00    0.000000000e+00    0.000000000e+00    0.000000000e+00
       27097500    5.258997083e-01   -8.113654852e-01    1.835354396e-06    3.094322892e-05    0.000000000e+00    0.000000000e+00    0.000000000e+00    0.000000000e+00
       27101250    5.240417123e-01   -8.127437830e-01   -1.955099469e-05   -8.601742593e-06    0.000000000e+00    0.000000000e+00    0.000000000e+00    0.000000000e+00
       27105000    5.221589804e-01   -8.139946461e-01   -5.842622704e-05    2.311372555e-05    0.000000000e+00    0.000000000e+00    0.000000000e+00    0.000000000e+00
       27108750    5.203005075e-01   -8.149847984e-01    5.946668352e-06    6.750720058e-05    0.000000000e+00    0.000000000e+00    0.000000000e+00    0.000000000e+00
       27112500    5.183612704e-01   -8.159824014e-01    4.027743853e-05    2.926501475e-05    0.000000000e+00    0.000000000e+00    0.000000000e+00    0.000000000e+00
       27116250    5.165051222e-01   -8.174424171e-01   -3.208909766e-05    3.266587373e-05    0.000000000e+00    0.000000000e+00    0.000000000e+00    0.000000000e+00
       27120000    5.145817995e-01   -8.184222579e-01   -5.496675658e-05    7.512219599e-05    0.000000000e+00    0.000000000e+00    0.000000000e+00    0.000000000e+00
       27123750    5.124911070e-01   -8.194016814e-01    1.900719690e-05    5.627503560e-05    0.000000000e+00    0.000000000e+00    0.000000000e+00    0.000000000e+00
       27127500    5.107299089e-01   -8.207777143e-01   -3.094787098e-05    4.167047518e-05    0.000000000e+00    0.000000000e+00    0.000000000e+00    0.000000000e+00
       27131250    5.086816549e-01   -8.220252395e-01   -2.979447163e-05    2.163199133e-05    0.000000000e+00    0.000000000e+00    0.000000000e+00    0.000000000e+00
       27135000    5.068338513e-01   -8.230615854e-01   -2.066239176e-05    3.437802661e-05    0.000000000e+00    0.000000000e+00    0.000000000e+00    0.000000000e+00
       27138750    5.049033761e-01   -8.241731524e-01   -1.360975330e-05    1.910800165e-05    0.000000000e+00    0.000000000e+00    0.000000000e+00    0.000000000e+00
       27142500    5.029075146e-01   -8.253682852e-01   -2.636844874e-05    2.333604607e-05    0.000000000e+00    0.000000000e+00    0.000000000e+00    0.000000000e+00
       27146250    5.009868741e-01   -8.266826868e-01    3.477590508e-05    5.802666419e-05    0.000000000e+00    0.000000000e+00    0.000000000e+00    0.000000000e+00
       27150000    4.989382625e-01   -8.277084231e-01    2.975090683e-05    6.988819950e-05    0.000000000e+00    0.000000000e+00    0.000000000e+00    0.000000000e+00
       27153750    4.968622327e-01   -8.288549781e-01   -1.028500355e-05    3.415435640e-05    0.000000000e+00    0.000000000e+00    0.000000000e+00    0.000000000e+00
       27157500    4.948808253e-01   -8.301104903e-01   -2.012071127e-05    3.782068961e-05    0.000000000e+00    0.000000000e+00    0.000000000e+00    0.000000000e+00
       27161250    4.928972721e-01   -8.311272264e-01    3.480246232e-05    1.914280620e-05    0.000000000e+00    0.000000000e+00    0.000000000e+00    0.000000000e+00
       27165000    4.908062518e-01   -8.321068287e-01   -6.206268881e-05    3.687040589e-05    0.000000000e+00    0.000000000e+00    0.000000000e+00    0.000000000e+00
       27168750    4.888994098e-01   -8.334944844e-01    1.832343173e-06    4.755707778e-05    0.000000000e+00    0.000000000e+00    0.000000000e+00    0.000000000e+00
       27172500    4.868529439e-01   -8.343991637e-01    1.467652282e-06    5.668215817e-05    0.000000000e+00    0.000000000e+00    0.000000000e+00    0.000000000e+00
       27176250    4.850395024e-01   -8.357126117e-01   -9.368360224e-06    4.028348121e-05    0.000000000e+00    0.000000000e+00    0.000000000e+00    0.000000000e+00
       27180000    4.828211665e-01   -8.367565274e-01   -5.557424083e-05    7.201331027e-05    0.000000000e+00    0.000000000e+00    0.000000000e+00    0.000000000e+00
       27183750    4.807192385e-01   -8.377373815e-01   -2.469280116e-05    8.297729073e-05    0.000000000e+00    0.000000000e+00    0.000000000e+00    0.000000000e+00
       27187500    4.787542224e-01   -8.387212157e-01    1.736803279e-05    6.195451715e-05    0.000000000e+00    0.000000000e+00    0.000000000e+00    0.000000000e+00
       27191250    4.763544202e-01   -8.401036263e-01   -1.410014283e-05    6.346150622e-05    0.000000000e+00    0.000000000e+00    0.000000000e+00    0.000000000e+00
       27195000    4.743967950e-01   -8.412311077e-01   -3.118748646e-05    2.692325324e-05    0.000000000e+00    0.000000000e+00    0.000000000e+00    0.000000000e+00
       27198750    4.725310504e-01   -8.421155810e-01   -2.405374471e-05    3.653351087e-05    0.000000000e+00    0.000000000e+00    0.000000000e+00    0.000000000e+00
       27202500    4.701749682e-01   -8.434609175e-01   -4.900190470e-05    7.254580123e-05    0.000000000e+00    0.000000000e+00    0.000000000e+00    0.000000000e+00
       27206250    4.681738913e-01   -8.445284963e-01    4.457282193e-05    5.137304834e-05    0.000000000e+00    0.000000000e+00    0.000000000e+00    0.000000000e+00
       27210000    4.661320448e-01   -8.454290032e-01   -5.261230399e-05    9.340211545e-05    0.000000000e+00    0.000000000e+00    0.000000000e+00    0.000000000e+00
       27213750    4.638323784e-01   -8.466060758e-01   -1.673873339e-05    1.617397902e-05    0.000000000e+00    0.000000000e+00    0.000000000e+00    0.000000000e+00
       27217500    4.618529379e-01   -8.479002118e-01   -3.610385465e-05    3.314535570e-05    0.000000000e+00    0.000000000e+00    0.000000000e+00    0.000000000e+00
       27221250    4.597054124e-01   -8.487591147e-01   -5.957612666e-05    1.314693054e-05    0.000000000e+00    0.000000000e+00    0.000000000e+00    0.000000000e+00
       27225000    4.574638009e-01   -8.496348858e-01   -9.588725334e-06    7.505591930e-05    0.000000000e+00    0.000000000e+00    0.000000000e+00    0.000000000e+00
       27228750    4.553301930e-01   -8.509753346e-01   -1.918519774e-05    5.451025208e-05    0.000000000e+00    0.000000000e+00    0.000000000e+00    0.000000000e+00
       27232500    4.528440237e-01   -8.521147370e-01   -6.619669875e-05    4.595244900e-05    0.000000000e+00    0.000000000e+00    0.000000000e+00    0.000000000e+00
       27236250    4.507984221e-01   -8.530115485e-01   -9.318618140e-06    3.479158477e-05    0.000000000e+00    0.000000000e+00    0.000000000e+00    0.000000000e+00
       27240000    4.488588870e-01   -8.541057110e-01   -2.816168126e-05    7.843648200e-05    0.000000000e+00    0.000000000e+00    0.000000000e+00    0.000000000e+00
       27243750    4.463212490e-01   -8.551895618e-01   -3.540277248e-05    1.044811725e-04    0.000000000e+00    0.000000000e+00    0.000000000e+00    0.000000000e+00
       27247500    4.442465305e-01   -8.563103080e-01   -3.007026316e-05    5.732892168e-05    0.000000000e+00    0.000000000e+00    0.000000000e+00    0.000000000e+00
       27251250    4.420596659e-01   -8.571594954e-01   -7.548269059e-05    3.320775431e-05    0.000000000e+00    0.000000000e+00    0.000000000e+00    0.000000000e+00
       27255000    4.397643209e-01   -8.580227494e-01   -3.037959323e-05    4.153907503e-05    0.000000000e+00    0.000000000e+00    0.000000000e+00    0.000000000e+00
       27258750    4.374191463e-01   -8.592947125e-01   -3.278765507e-05    1.039239796e-04    0.000000000e+00    0.000000000e+00    0.000000000e+00    0.000000000e+00
       27262500    4.349135160e-01   -8.602305055e-01   -4.647795868e-05    2.502539428e-05    0.000000000e+00    0.000000000e+00    0.000000000e+00    0.000000000e+00
       27266250    4.329470992e-01   -8.613501787e-01   -4.800787792e-05   -3.907035079e-06    0.000000000e+00    0.000000000e+00    0.000000000e+00    0.000000000e+00
       27270000    4.305337369e-01   -8.623211384e-01    3.306499275e-05    7.393590204e-05    0.000000000e+00    0.000000000e+00    0.000000000e+00    0.000000000e+00
       27273750    4.281615615e-01   -8.633932471e-01    4.126491331e-05    7.357523282e-05    0.000000000e+00    0.000000000e+00    0.000000000e+00    0.000000000e+00
       27277500    4.257614315e-01   -8.646248579e-01   -2.021640648e-05    3.467687202e-05    0.000000000e+00    0.000000000e+00    0.000000000e+00    0.000000000e+00
       27281250    4.235163927e-01   -8.655878305e-01   -3.669507805e-06    4.341798194e-05    0.000000000e+00    0.000000000e+00    0.000000000e+00    0.000000000e+00
       27285000    4.211287200e-01   -8.666482568e-01   -5.217693251e-05    2.472028973e-05    0.000000000e+00    0.000000000e+00    0.000000000e+00    0.000000000e+00
       27288750    4.187515974e-01   -8.673434258e-01    3.210703289e-05    4.066797919e-05    0.000000000e+00    0.000000000e+00    0.000000000e+00    0.000000000e+00
       27292500    4.163884819e-01   -8.685793877e-01   -2.636765566e-05    6.608733383e-05    0.000000000e+00    0.000000000e+00    0.000000000e+00    0.000000000e+00
       27296250    4.139681458e-01   -8.694699407e-01   -1.479231469e-05    4.380078099e-05    0.000000000e+00    0.000000000e+00    0.000000000e+00    0.000000000e+00
       27300000    4.118275940e-01   -8.703518510e-01   -2.993176531e-05    1.398388304e-05    0.000000000e+00    0.000000000e+00    0.000000000e+00    0.000000000e+00
       27303750    4.091215432e-01   -8.716156483e-01    1.296514984e-05    8.594430983e-05    0.000000000e+00    0.000000000e+00    0.000000000e+00    0.000000000e+00
       27307500    4.067582786e-01   -8.726541996e-01   -4.247281595e-06    5.271506234e-05    0.000000000e+00    0.000000000e+00    0.000000000e+00    0.000000000e+00
       27311250    4.045303166e-01   -8.736434579e-01   -1.896945651e-05    5.216509453e-05    0.000000000e+00    0.000000000e+00    0.000000000e+00    0.000000000e+00
       27315000    4.021400809e-01   -8.744006753e-01    7.369322248e-06    4.024511509e-05    0.000000000e+00    0.000000000e+00    0.000000000e+00    0.000000000e+00
       27318750    3.994673491e-01   -8.753339648e-01    2.060716906e-05    2.520020826e-05    0.000000000e+00    0.000000000e+00    0.000000000e+00    0.000000000e+00
       27322500    3.971991539e-01   -8.764480352e-01   -1.660517592e-05    5.268414316e-05    0.000000000e+00    0.000000000e+00    0.000000000e+00    0.000000000e+00
       27326250    3.946168125e-01   -8.775522113e-01    4.484667443e-05   -7.640834383e-07    0.000000000e+00    0.000000000e+00    0.000000000e+00    0.000000000e+00
       27330000    3.919295669e-01   -8.786005378e-01   -3.397389446e-05    5.999074347e-05    0.000000000e+00    0.000000000e+00    0.000000000e+00    0.000000000e+00
       27333750    3.895810544e-01   -8.793565035e-01   -3.857792763e-05    8.173625974e-05    0.000000000e+00    0.000000000e+00    0.000000000e+00    0.000000000e+00
       27337500    3.873057365e-01   -8.803249598e-01    4.597536463e-05    3.542770719e-05    0.000000000e+00    0.000000000e+00    0.000000000e+00    0.000000000e+00
       27341250    3.845434487e-01   -8.812125325e-01   -1.602442535e-05    1.170114319e-05    0.000000000e+00    0.000000000e+00    0.000000000e+00    0.000000000e+00
       27345000    3.820913732e-01   -8.823875189e-01   -1.340469589e-05    6.168930850e-05    0.000000000e+00    0.000000000e+00    0.000000000e+00    0.000000000e+00
       27348750    3.795507550e-01   -8.832481503e-01    2.765144927e-06    6.526612560e-05    0.000000000e+00    0.000000000e+00    0.000000000e+00    0.000000000e+00
       27352500    3.769484460e-01   -8.840424418e-01    8.666976100e-06    5.981611685e-05    0.000000000e+00    0.000000000e+00    0.000000000e+00    0.000000000e+00
       27356250    3.743171692e-01   -8.850005269e-01    2.016699364e-05    2.183471952e-05    0.000000000e+00    0.000000000e+00    0.000000000e+00    0.000000000e+00
       27360000    3.717217445e-01   -8.861845732e-01   -2.202355790e-05    7.452581485e-05    0.000000000e+00    0.000000000e+00    0.000000000e+00    0.000000000e+00
       27363750    3.692071438e-01   -8.870961666e-01   -2.136795047e-05    8.867843280e-05    0.000000000e+00    0.000000000e+00    0.000000000e+00    0.000000000e+00
       27367500    3.666673005e-01   -8.879681826e-01   -3.957787703e-05    5.965970195e-05    0.000000000e+00    0.000000000e+00    0.000000000e+00    0.000000000e+00
       27371250    3.638323247e-01   -8.888368011e-01   -3.334307985e-05    8.130380593e-05    0.000000000e+00    0.000000000e+00    0.000000000e+00    0.000000000e+00
       27375000    3.613453805e-01   -8.900610805e-01    3.044663754e-05    3.198856211e-05    0.000000000e+00    0.000000000e+00    0.000000000e+00    0.000000000e+00
       27378750    3.587260842e-01   -8.907973766e-01   -2.558102642e-05    3.978795939e-05    0.000000000e+00    0.000000000e+00    0.000000000e+00    0.000000000e+00
       27382500    3.557746112e-01   -8.919379711e-01    7.163678788e-07    5.423989205e-05    0.000000000e+00    0.000000000e+00    0.000000000e+00    0.000000000e+00
       27386250    3.532840312e-01   -8.927311897e-01   -3.856293188e-05    8.689339302e-05    0.000000000e+00    0.000000000e+00    0.000000000e+00    0.000000000e+00
       27390000    3.504837453e-01   -8.935922980e-01   -4.155669012e-05    2.530624442e-05    0.000000000e+00    0.000000000e+00    0.000000000e+00    0.000000000e+00
       27393750    3.475977480e-01   -8.947377801e-01    3.528641173e-05    3.173590812e-05    0.000000000e+00    0.000000000e+00    0.000000000e+00    0.000000000e+00
       27397500    3.451080620e-01   -8.957222700e-01    1.766076025e-06    3.456479590e-06    0.000000000e+00    0.000000000e+00    0.000000000e+00    0.000000000e+00
       27401250    3.421649635e-01   -8.964223266e-01   -1.603761120e-05    4.357523358e-05    0.000000000e+00    0.000000000e+00    0.000000000e+00    0.000000000e+00
       27405000    3.392688930e-01   -8.973953128e-01   -1.873960355e-05    4.849721881e-05    0.000000000e+00    0.000000000e+00    0.000000000e+00    0.000000000e+00
       27408750    3.364173770e-01   -8.983993530e-01    1.907316619e-05    9.212477016e-05    0.000000000e+00    0.000000000e+00    0.000000000e+00    0.000000000e+00
       27412500    3.336739540e-01   -8.991863132e-01   -3.941042451e-05    4.062410153e-05    0.000000000e+00    0.000000000e+00    0.000000000e+00    0.000000000e+00
       27416250    3.307363987e-01   -9.001721144e-01    2.991936708e-05    3.505826680e-05    0.000000000e+00    0.000000000e+00    0.000000000e+00    0.000000000e+00
       27420000    3.278259933e-01   -9.010294676e-01   -4.275036554e-05   -1.056277779e-05    0.000000000e+00    0.000000000e+00    0.000000000e+00    0.000000000e+00
       27423750    3.247721791e-01   -9.020630717e-01   -5.466692892e-05    2.367493107e-05    0.000000000e+00    0.000000000e+00    0.000000000e+00    0.000000000e+00
       27427500    3.220005929e-01   -9.029362202e-01    2.444290885e-06    4.991047535e-05    0.000000000e+00    0.000000000e+00    0.000000000e+00    0.000000000e+00
       27431250    3.189128339e-01   -9.039568305e-01    1.407936907e-06    1.024687208e-05    0.000000000e+00    0.000000000e+00    0.000000000e+00    0.000000000e+00
       27435000    3.157154620e-01   -9.048695564e-01   -1.783292282e-05    7.044188351e-06    0.000000000e+00    0.000000000e+00    0.000000000e+00    0.000000000e+00
