! NanoVNA-App by OneOfEleven et al v1.1.209 (+OD18) 
! Date: 2025-07-14 21:09:09
! Start: 28MHz Stop: 30MHz Points: 801
! S-Parameter data: F S11
# Hz S RI R 50
!     Frequency           S11_Real           S11_Imag
       28000000   -2.490886301e-01   -7.901951075e-01
       28002500   -2.520755231e-01   -7.881485820e-01
       28005000   -2.547420263e-01   -7.862348557e-01
       28007500   -2.579031289e-01   -7.838275433e-01
       28010000   -2.606480122e-01   -7.821058035e-01
       28012500   -2.635171711e-01   -7.799621820e-01
       28015000   -2.664189339e-01   -7.778552175e-01
       28017500   -2.693297565e-01   -7.757761478e-01
       28020000   -2.721363604e-01   -7.735388875e-01
       28022500   -2.751017213e-01   -7.713491917e-01
       28025000   -2.777763009e-01   -7.692173719e-01
       28027500   -2.805466354e-01   -7.672626972e-01
       28030000   -2.829821706e-01   -7.649479508e-01
       28032500   -2.858597934e-01   -7.628427744e-01
       28035000   -2.882789969e-01   -7.607370615e-01
       28037500   -2.909904122e-01   -7.585489154e-01
       28040000   -2.938318849e-01   -7.561729550e-01
       28042500   -2.964187562e-01   -7.537933588e-01
       28045000   -2.992760539e-01   -7.514264584e-01
       28047500   -3.019525707e-01   -7.490987182e-01
       28050000   -3.048500419e-01   -7.464270592e-01
       28052500   -3.076098263e-01   -7.440140843e-01
       28055000   -3.104611635e-01   -7.416449189e-01
       28057500   -3.131431341e-01   -7.389002442e-01
       28060000   -3.158141673e-01   -7.364993095e-01
       28062500   -3.186869025e-01   -7.339661717e-01
       28065000   -3.213807642e-01   -7.313285470e-01
       28067500   -3.242358267e-01   -7.287478447e-01
       28070000   -3.268953562e-01   -7.262048721e-01
       28072500   -3.296806812e-01   -7.234478593e-01
       28075000   -3.324492276e-01   -7.207333446e-01
       28077500   -3.350625932e-01   -7.180273533e-01
       28080000   -3.380188644e-01   -7.152333856e-01
       28082500   -3.406977654e-01   -7.126559019e-01
       28085000   -3.433535695e-01   -7.098466754e-01
       28087500   -3.460348547e-01   -7.071681619e-01
       28090000   -3.487216234e-01   -7.042569518e-01
       28092500   -3.514735997e-01   -7.013779879e-01
       28095000   -3.540394604e-01   -6.985473037e-01
       28097500   -3.568516076e-01   -6.955759525e-01
       28100000   -3.593940139e-01   -6.927385926e-01
       28102500   -3.620223701e-01   -6.898196340e-01
       28105000   -3.646726608e-01   -6.868748665e-01
       28107500   -3.672444820e-01   -6.839613318e-01
       28110000   -3.699300885e-01   -6.808722019e-01
       28112500   -3.723336458e-01   -6.779935360e-01
       28115000   -3.750860691e-01   -6.748381257e-01
       28117500   -3.776303232e-01   -6.717671156e-01
       28120000   -3.801045120e-01   -6.685858369e-01
       28122500   -3.827017248e-01   -6.656141281e-01
       28125000   -3.852506578e-01   -6.624706388e-01
       28127500   -3.875517249e-01   -6.592001319e-01
       28130000   -3.902640343e-01   -6.560474634e-01
       28132500   -3.927411139e-01   -6.528794765e-01
       28135000   -3.951624930e-01   -6.497436166e-01
       28137500   -3.975538313e-01   -6.462997198e-01
       28140000   -4.000487924e-01   -6.431342959e-01
       28142500   -4.024423063e-01   -6.398879290e-01
       28145000   -4.049021602e-01   -6.365212202e-01
       28147500   -4.072866738e-01   -6.332765818e-01
       28150000   -4.094997942e-01   -6.297722459e-01
       28152500   -4.119363129e-01   -6.263750792e-01
       28155000   -4.142835438e-01   -6.230267882e-01
       28157500   -4.167595506e-01   -6.194717288e-01
       28160000   -4.189319313e-01   -6.162508726e-01
       28162500   -4.211626947e-01   -6.127294302e-01
       28165000   -4.235308170e-01   -6.092678308e-01
       28167500   -4.256307483e-01   -6.057136655e-01
       28170000   -4.279410243e-01   -6.022356153e-01
       28172500   -4.300735593e-01   -5.984885097e-01
       28175000   -4.322129190e-01   -5.949546695e-01
       28177500   -4.344830811e-01   -5.913271904e-01
       28180000   -4.364871979e-01   -5.876555443e-01
       28182500   -4.384659827e-01   -5.842153430e-01
       28185000   -4.406895041e-01   -5.803552866e-01
       28187500   -4.428390265e-01   -5.766760111e-01
       28190000   -4.448368251e-01   -5.731194019e-01
       28192500   -4.468299747e-01   -5.693615675e-01
       28195000   -4.487856328e-01   -5.656306744e-01
       28197500   -4.507335126e-01   -5.617545247e-01
       28200000   -4.527825713e-01   -5.580522418e-01
       28202500   -4.545608759e-01   -5.541387200e-01
       28205000   -4.566144049e-01   -5.503438115e-01
       28207500   -4.583291113e-01   -5.465579033e-01
       28210000   -4.603361785e-01   -5.426613092e-01
       28212500   -4.620574117e-01   -5.387115479e-01
       28215000   -4.638406038e-01   -5.348716974e-01
       28217500   -4.655743539e-01   -5.309491754e-01
       28220000   -4.674253762e-01   -5.271134973e-01
       28222500   -4.691540003e-01   -5.231391788e-01
       28225000   -4.707044065e-01   -5.192370415e-01
       28227500   -4.725058973e-01   -5.151457787e-01
       28230000   -4.741753936e-01   -5.111474395e-01
       28232500   -4.757283330e-01   -5.073025227e-01
       28235000   -4.773889780e-01   -5.030640960e-01
       28237500   -4.789767861e-01   -4.992479682e-01
       28240000   -4.805710912e-01   -4.950701892e-01
       28242500   -4.819433093e-01   -4.909065366e-01
       28245000   -4.835094810e-01   -4.868300259e-01
       28247500   -4.849145710e-01   -4.828608632e-01
       28250000   -4.866403639e-01   -4.786582887e-01
       28252500   -4.880752861e-01   -4.744754434e-01
       28255000   -4.893923700e-01   -4.701334238e-01
       28257500   -4.907340407e-01   -4.661613405e-01
       28260000   -4.919374883e-01   -4.618634284e-01
       28262500   -4.930767417e-01   -4.577683210e-01
       28265000   -4.943481088e-01   -4.536312819e-01
       28267500   -4.955964983e-01   -4.493231773e-01
       28270000   -4.966468811e-01   -4.450377822e-01
       28272500   -4.978603721e-01   -4.408363402e-01
       28275000   -4.989218712e-01   -4.367178977e-01
       28277500   -5.000031590e-01   -4.324661195e-01
       28280000   -5.011534691e-01   -4.281731546e-01
       28282500   -5.020288825e-01   -4.239459038e-01
       28285000   -5.028890967e-01   -4.196215570e-01
       28287500   -5.038667917e-01   -4.152950048e-01
       28290000   -5.047359467e-01   -4.111191034e-01
       28292500   -5.056949854e-01   -4.067670703e-01
       28295000   -5.063298345e-01   -4.024047554e-01
       28297500   -5.072232485e-01   -3.981181383e-01
       28300000   -5.080317855e-01   -3.938542604e-01
       28302500   -5.086421967e-01   -3.894346356e-01
       28305000   -5.092995167e-01   -3.851153851e-01
       28307500   -5.099812150e-01   -3.807351589e-01
       28310000   -5.105341673e-01   -3.764995337e-01
       28312500   -5.112254024e-01   -3.721767664e-01
       28315000   -5.117542148e-01   -3.677954972e-01
       28317500   -5.123102665e-01   -3.634702563e-01
       28320000   -5.125964880e-01   -3.590982258e-01
       28322500   -5.131285787e-01   -3.547131717e-01
       28325000   -5.134543180e-01   -3.503312469e-01
       28327500   -5.138029456e-01   -3.459589779e-01
       28330000   -5.141039491e-01   -3.415036500e-01
       28332500   -5.144577622e-01   -3.373243511e-01
       28335000   -5.148447752e-01   -3.329766393e-01
       28337500   -5.149606466e-01   -3.285504580e-01
       28340000   -5.150519013e-01   -3.241958916e-01
       28342500   -5.153204799e-01   -3.199057281e-01
       28345000   -5.155134797e-01   -3.155549467e-01
       28347500   -5.155664682e-01   -3.112126589e-01
       28350000   -5.156743526e-01   -3.067999780e-01
       28352500   -5.155479908e-01   -3.024610281e-01
       28355000   -5.155873299e-01   -2.981232107e-01
       28357500   -5.154525638e-01   -2.937568724e-01
       28360000   -5.153414607e-01   -2.894634306e-01
       28362500   -5.152747631e-01   -2.851427197e-01
       28365000   -5.151153207e-01   -2.808829844e-01
       28367500   -5.149514079e-01   -2.765322328e-01
       28370000   -5.146702528e-01   -2.721797824e-01
       28372500   -5.144717693e-01   -2.679207027e-01
       28375000   -5.140320659e-01   -2.635670602e-01
       28377500   -5.138298273e-01   -2.595474720e-01
       28380000   -5.134453773e-01   -2.550682425e-01
       28382500   -5.129901767e-01   -2.508452237e-01
       28385000   -5.126754045e-01   -2.467388809e-01
       28387500   -5.121992826e-01   -2.423574924e-01
       28390000   -5.116028786e-01   -2.380216867e-01
       28392500   -5.110605359e-01   -2.339904308e-01
       28395000   -5.104628205e-01   -2.297613025e-01
       28397500   -5.098952055e-01   -2.256390303e-01
       28400000   -5.093136430e-01   -2.214970887e-01
       28402500   -5.086492896e-01   -2.173008919e-01
       28405000   -5.079216361e-01   -2.129976451e-01
       28407500   -5.070995092e-01   -2.090508789e-01
       28410000   -5.063508749e-01   -2.049341202e-01
       28412500   -5.056537986e-01   -2.008194774e-01
       28415000   -5.047354102e-01   -1.967669278e-01
       28417500   -5.038715601e-01   -1.926861703e-01
       28420000   -5.029751658e-01   -1.886855364e-01
       28422500   -5.021129847e-01   -1.846836507e-01
       28425000   -5.012400150e-01   -1.806161404e-01
       28427500   -5.002743602e-01   -1.766149700e-01
       28430000   -4.991512895e-01   -1.726619899e-01
       28432500   -4.981634021e-01   -1.687983423e-01
       28435000   -4.971288741e-01   -1.647932529e-01
       28437500   -4.959702194e-01   -1.608783007e-01
       28440000   -4.948643446e-01   -1.569719017e-01
       28442500   -4.937156141e-01   -1.531253010e-01
       28445000   -4.926085472e-01   -1.492198855e-01
       28447500   -4.913923442e-01   -1.455251127e-01
       28450000   -4.902033508e-01   -1.417121589e-01
       28452500   -4.888644218e-01   -1.378212720e-01
       28455000   -4.876164794e-01   -1.340809315e-01
       28457500   -4.863314331e-01   -1.304587573e-01
       28460000   -4.849686921e-01   -1.266643405e-01
       28462500   -4.836489260e-01   -1.230528951e-01
       28465000   -4.823409915e-01   -1.193546206e-01
       28467500   -4.809330702e-01   -1.157747284e-01
       28470000   -4.794540405e-01   -1.121776849e-01
       28472500   -4.781005383e-01   -1.086074933e-01
       28475000   -4.764886796e-01   -1.051205695e-01
       28477500   -4.751574099e-01   -1.016338840e-01
       28480000   -4.735264778e-01   -9.800083190e-02
       28482500   -4.720139802e-01   -9.445437044e-02
       28485000   -4.705343843e-01   -9.100966156e-02
       28487500   -4.688920677e-01   -8.769024163e-02
       28490000   -4.673772454e-01   -8.435761929e-02
       28492500   -4.657291770e-01   -8.095792681e-02
       28495000   -4.640704989e-01   -7.756301761e-02
       28497500   -4.624240994e-01   -7.420198619e-02
       28500000   -4.609207809e-01   -7.100802660e-02
       28502500   -4.592197537e-01   -6.792271137e-02
       28505000   -4.574407041e-01   -6.458924711e-02
       28507500   -4.558407962e-01   -6.134455279e-02
       28510000   -4.539861083e-01   -5.822813138e-02
       28512500   -4.523690641e-01   -5.512921512e-02
       28515000   -4.505926371e-01   -5.191154778e-02
       28517500   -4.488646984e-01   -4.895802587e-02
       28520000   -4.471052587e-01   -4.594714940e-02
       28522500   -4.453359842e-01   -4.293370619e-02
       28525000   -4.436157346e-01   -3.993177041e-02
       28527500   -4.417717755e-01   -3.687989339e-02
       28530000   -4.399415255e-01   -3.407777101e-02
       28532500   -4.381662309e-01   -3.123825043e-02
       28535000   -4.362390935e-01   -2.846945636e-02
       28537500   -4.346097112e-01   -2.539610863e-02
       28540000   -4.325552881e-01   -2.267050743e-02
       28542500   -4.307034612e-01   -1.987644657e-02
       28545000   -4.287597835e-01   -1.707294397e-02
       28547500   -4.271294773e-01   -1.440760866e-02
       28550000   -4.251873791e-01   -1.188031677e-02
       28552500   -4.232724309e-01   -9.251086041e-03
       28555000   -4.214745164e-01   -6.582110189e-03
       28557500   -4.193870723e-01   -3.937970847e-03
       28560000   -4.177366197e-01   -1.577464980e-03
       28562500   -4.158010483e-01    9.404406301e-04
       28565000   -4.138232172e-01    3.330253996e-03
       28567500   -4.121423960e-01    5.835256074e-03
       28570000   -4.100814760e-01    8.268347941e-03
       28572500   -4.083998501e-01    1.060467027e-02
       28575000   -4.064357579e-01    1.300725713e-02
       28577500   -4.045555294e-01    1.528506353e-02
       28580000   -4.026769698e-01    1.758420467e-02
       28582500   -4.009261131e-01    1.984197460e-02
       28585000   -3.988709450e-01    2.206795104e-02
       28587500   -3.970357478e-01    2.420894429e-02
       28590000   -3.952098191e-01    2.638220601e-02
       28592500   -3.933488131e-01    2.848415636e-02
       28595000   -3.915351331e-01    3.058915026e-02
       28597500   -3.896915913e-01    3.261787444e-02
       28600000   -3.878418207e-01    3.458238766e-02
       28602500   -3.860299587e-01    3.657021374e-02
       28605000   -3.842024505e-01    3.853524476e-02
       28607500   -3.824049830e-01    4.045468196e-02
       28610000   -3.807271123e-01    4.248000309e-02
       28612500   -3.789469004e-01    4.422724620e-02
       28615000   -3.771964014e-01    4.604680464e-02
       28617500   -3.755340278e-01    4.795380309e-02
       28620000   -3.736817539e-01    4.979543015e-02
       28622500   -3.719308972e-01    5.154282227e-02
       28625000   -3.702594936e-01    5.322169513e-02
       28627500   -3.685736656e-01    5.485525727e-02
       28630000   -3.669375479e-01    5.670567229e-02
       28632500   -3.651623428e-01    5.824122578e-02
       28635000   -3.636701703e-01    5.994625390e-02
       28637500   -3.620221317e-01    6.147332489e-02
       28640000   -3.605918586e-01    6.304084510e-02
       28642500   -3.589242697e-01    6.449456513e-02
       28645000   -3.575512767e-01    6.610644609e-02
       28647500   -3.559274673e-01    6.756187975e-02
       28650000   -3.544938266e-01    6.908535957e-02
       28652500   -3.530455232e-01    7.065412402e-02
       28655000   -3.515544236e-01    7.187685370e-02
       28657500   -3.501631618e-01    7.319933921e-02
       28660000   -3.487291336e-01    7.476134598e-02
       28662500   -3.474320471e-01    7.607404888e-02
       28665000   -3.461198211e-01    7.736942172e-02
       28667500   -3.449219763e-01    7.872471213e-02
       28670000   -3.435764611e-01    8.000006527e-02
       28672500   -3.424618840e-01    8.131994307e-02
       28675000   -3.413135111e-01    8.260542154e-02
       28677500   -3.399773538e-01    8.390031755e-02
       28680000   -3.388234973e-01    8.516252786e-02
       28682500   -3.378532529e-01    8.628352731e-02
       28685000   -3.366821110e-01    8.756550401e-02
       28687500   -3.356652856e-01    8.878704906e-02
       28690000   -3.348272741e-01    8.986912668e-02
       28692500   -3.338137269e-01    9.114445746e-02
       28695000   -3.328578174e-01    9.230639786e-02
       28697500   -3.319268823e-01    9.345462918e-02
       28700000   -3.310498893e-01    9.469585121e-02
       28702500   -3.303811252e-01    9.578619897e-02
       28705000   -3.296453655e-01    9.698364139e-02
       28707500   -3.288082778e-01    9.810177982e-02
       28710000   -3.280832171e-01    9.947588295e-02
       28712500   -3.274762630e-01    1.005218551e-01
       28715000   -3.268940449e-01    1.015890762e-01
       28717500   -3.263716996e-01    1.026986986e-01
       28720000   -3.258208036e-01    1.038115770e-01
       28722500   -3.253031671e-01    1.049634442e-01
       28725000   -3.249303699e-01    1.061313748e-01
       28727500   -3.244659603e-01    1.074706465e-01
       28730000   -3.241243660e-01    1.087045968e-01
       28732500   -3.237511516e-01    1.097480357e-01
       28735000   -3.235621750e-01    1.110090911e-01
       28737500   -3.232337832e-01    1.124122590e-01
       28740000   -3.231450617e-01    1.134266108e-01
       28742500   -3.230357170e-01    1.146582514e-01
       28745000   -3.228373528e-01    1.160238162e-01
       28747500   -3.227813840e-01    1.172076836e-01
       28750000   -3.228257298e-01    1.186399236e-01
       28752500   -3.227984309e-01    1.199627444e-01
       28755000   -3.228960335e-01    1.211940348e-01
       28757500   -3.228820562e-01    1.225349009e-01
       28760000   -3.231108487e-01    1.241427958e-01
       28762500   -3.233428597e-01    1.254642755e-01
       28765000   -3.236115575e-01    1.270059496e-01
       28767500   -3.238635659e-01    1.283574402e-01
       28770000   -3.242069483e-01    1.301294118e-01
       28772500   -3.244601190e-01    1.316273659e-01
       28775000   -3.249776065e-01    1.332692653e-01
       28777500   -3.253490627e-01    1.348607093e-01
       28780000   -3.258236945e-01    1.366093308e-01
       28782500   -3.264772594e-01    1.382407695e-01
       28785000   -3.269382119e-01    1.401520222e-01
       28787500   -3.273352385e-01    1.418108791e-01
       28790000   -3.281571567e-01    1.438235343e-01
       28792500   -3.287208974e-01    1.456927210e-01
       28795000   -3.295109570e-01    1.476687342e-01
       28797500   -3.300699294e-01    1.497342885e-01
       28800000   -3.309436738e-01    1.518827975e-01
       28802500   -3.317013681e-01    1.537570357e-01
       28805000   -3.324338496e-01    1.561625004e-01
       28807500   -3.332237601e-01    1.583202630e-01
       28810000   -3.341701329e-01    1.607077718e-01
       28812500   -3.349856734e-01    1.632126123e-01
       28815000   -3.359706998e-01    1.655320376e-01
       28817500   -3.368908167e-01    1.681278944e-01
       28820000   -3.377637565e-01    1.707471907e-01
       28822500   -3.387497962e-01    1.734103411e-01
       28825000   -3.396548033e-01    1.761914194e-01
       28827500   -3.406350315e-01    1.791018546e-01
       28830000   -3.416244984e-01    1.817946136e-01
       28832500   -3.425812125e-01    1.848914921e-01
       28835000   -3.436025083e-01    1.878346205e-01
       28837500   -3.445724547e-01    1.909316182e-01
       28840000   -3.457686901e-01    1.941381395e-01
       28842500   -3.467216194e-01    1.975064874e-01
       28845000   -3.475683033e-01    2.008928657e-01
       28847500   -3.485741913e-01    2.043936551e-01
       28850000   -3.495046794e-01    2.078908533e-01
       28852500   -3.505404592e-01    2.116425782e-01
       28855000   -3.513955474e-01    2.152711600e-01
       28857500   -3.523430228e-01    2.192096859e-01
       28860000   -3.532515466e-01    2.231406271e-01
       28862500   -3.540829420e-01    2.270298898e-01
       28865000   -3.549920321e-01    2.310737967e-01
       28867500   -3.558291793e-01    2.353309691e-01
       28870000   -3.565846086e-01    2.397046685e-01
       28872500   -3.572308719e-01    2.440147549e-01
       28875000   -3.579607606e-01    2.484457940e-01
       28877500   -3.586002290e-01    2.529966533e-01
       28880000   -3.593001962e-01    2.573966682e-01
       28882500   -3.597229421e-01    2.622698843e-01
       28885000   -3.603556752e-01    2.669680417e-01
       28887500   -3.605813980e-01    2.720029950e-01
       28890000   -3.610174358e-01    2.768996954e-01
       28892500   -3.614441752e-01    2.819676995e-01
       28895000   -3.616883159e-01    2.871528566e-01
       28897500   -3.617616296e-01    2.923902869e-01
       28900000   -3.619287014e-01    2.976111174e-01
       28902500   -3.619661033e-01    3.029878736e-01
       28905000   -3.616793454e-01    3.084586859e-01
       28907500   -3.616836071e-01    3.139265180e-01
       28910000   -3.614644110e-01    3.195803463e-01
       28912500   -3.610420227e-01    3.253282011e-01
