! NanoVNA-App by OneOfEleven et al v1.1.209 (+OD18) 
! Date: 2025-07-14 21:06:51
! Start: 21MHz Stop: 22MHz Points: 801
! S-Parameter data: F S11
# Hz S RI R 50
!     Frequency           S11_Real           S11_Imag
       21000000   -8.720941842e-02   -1.466919035e-01
       21001250   -8.700082451e-02   -1.462879181e-01
       21002500   -8.692067116e-02   -1.460468322e-01
       21003750   -8.689939231e-02   -1.455757469e-01
       21005000   -8.686613292e-02   -1.454751194e-01
       21006250   -8.690240234e-02   -1.450507194e-01
       21007500   -8.664731681e-02   -1.447756439e-01
       21008750   -8.684477955e-02   -1.443496794e-01
       21010000   -8.675511926e-02   -1.440055966e-01
       21011250   -8.677168936e-02   -1.437401026e-01
       21012500   -8.673299849e-02   -1.433872879e-01
       21013750   -8.642905205e-02   -1.433186382e-01
       21015000   -8.643744886e-02   -1.427884400e-01
       21016250   -8.666961640e-02   -1.423322707e-01
       21017500   -8.657301217e-02   -1.419990808e-01
       21018750   -8.660443872e-02   -1.419520527e-01
       21020000   -8.665808290e-02   -1.413806677e-01
       21021250   -8.637060225e-02   -1.411511451e-01
       21022500   -8.645253628e-02   -1.407514215e-01
       21023750   -8.656374365e-02   -1.404236555e-01
       21025000   -8.629868180e-02   -1.402988732e-01
       21026250   -8.640089631e-02   -1.397539228e-01
       21027500   -8.634996414e-02   -1.396209896e-01
       21028750   -8.633890748e-02   -1.390559971e-01
       21030000   -8.630481362e-02   -1.385833621e-01
       21031250   -8.606325090e-02   -1.383384615e-01
       21032500   -8.611361682e-02   -1.378827840e-01
       21033750   -8.619055897e-02   -1.375658512e-01
       21035000   -8.594789356e-02   -1.373708099e-01
       21036250   -8.594453335e-02   -1.366520822e-01
       21037500   -8.593021333e-02   -1.364131868e-01
       21038750   -8.591762185e-02   -1.360360682e-01
       21040000   -8.587034792e-02   -1.356640458e-01
       21041250   -8.572613448e-02   -1.353326887e-01
       21042500   -8.569447696e-02   -1.348977089e-01
       21043750   -8.567430079e-02   -1.346209496e-01
       21045000   -8.561472595e-02   -1.342259198e-01
       21046250   -8.561579883e-02   -1.337272227e-01
       21047500   -8.562471718e-02   -1.334592849e-01
       21048750   -8.559323847e-02   -1.330059916e-01
       21050000   -8.555766195e-02   -1.328072995e-01
       21051250   -8.536941558e-02   -1.324217618e-01
       21052500   -8.558536321e-02   -1.322218925e-01
       21053750   -8.547754586e-02   -1.317615807e-01
       21055000   -8.535588533e-02   -1.313835233e-01
       21056250   -8.541009575e-02   -1.310788542e-01
       21057500   -8.536506444e-02   -1.308448911e-01
       21058750   -8.526262641e-02   -1.303810179e-01
       21060000   -8.539735526e-02   -1.299735755e-01
       21061250   -8.527877182e-02   -1.296771467e-01
       21062500   -8.540543169e-02   -1.293782592e-01
       21063750   -8.524979651e-02   -1.289608479e-01
       21065000   -8.523505181e-02   -1.287155747e-01
       21066250   -8.516612649e-02   -1.283644438e-01
       21067500   -8.510164171e-02   -1.279761493e-01
       21068750   -8.520731330e-02   -1.276514828e-01
       21070000   -8.507434279e-02   -1.273833215e-01
       21071250   -8.505120128e-02   -1.269937605e-01
       21072500   -8.506211638e-02   -1.267896295e-01
       21073750   -8.503977954e-02   -1.264002323e-01
       21075000   -8.511267602e-02   -1.259419471e-01
       21076250   -8.506608754e-02   -1.256856322e-01
       21077500   -8.494096249e-02   -1.252426654e-01
       21078750   -8.492773771e-02   -1.250030845e-01
       21080000   -8.501092345e-02   -1.246209592e-01
       21081250   -8.488495648e-02   -1.242894530e-01
       21082500   -8.489900827e-02   -1.239108369e-01
       21083750   -8.484960347e-02   -1.235801876e-01
       21085000   -8.482692391e-02   -1.232697517e-01
       21086250   -8.490724862e-02   -1.228374839e-01
       21087500   -8.480215818e-02   -1.226222664e-01
       21088750   -8.475919068e-02   -1.221828461e-01
       21090000   -8.472780138e-02   -1.219022796e-01
       21091250   -8.472906053e-02   -1.215346828e-01
       21092500   -8.474913985e-02   -1.212109551e-01
       21093750   -8.477269113e-02   -1.208642721e-01
       21095000   -8.463370800e-02   -1.205051988e-01
       21096250   -8.465714008e-02   -1.202429384e-01
       21097500   -8.457459509e-02   -1.197764277e-01
       21098750   -8.456910402e-02   -1.195025742e-01
       21100000   -8.455485851e-02   -1.191597879e-01
       21101250   -8.450128138e-02   -1.188294291e-01
       21102500   -8.456620574e-02   -1.184067428e-01
       21103750   -8.449161798e-02   -1.181266829e-01
       21105000   -8.448027819e-02   -1.177053154e-01
       21106250   -8.437907696e-02   -1.173881739e-01
       21107500   -8.447977901e-02   -1.170502529e-01
       21108750   -8.448062837e-02   -1.167001650e-01
       21110000   -8.443337679e-02   -1.164060682e-01
       21111250   -8.438590914e-02   -1.160205975e-01
       21112500   -8.436743915e-02   -1.158366650e-01
       21113750   -8.434320986e-02   -1.153973565e-01
       21115000   -8.438247442e-02   -1.150382906e-01
       21116250   -8.429756016e-02   -1.147386879e-01
       21117500   -8.424489945e-02   -1.142031476e-01
       21118750   -8.424815536e-02   -1.139323935e-01
       21120000   -8.420067281e-02   -1.134854332e-01
       21121250   -8.420766890e-02   -1.133008078e-01
       21122500   -8.416835964e-02   -1.129219085e-01
       21123750   -8.435168117e-02   -1.125850081e-01
       21125000   -8.406336606e-02   -1.121936217e-01
       21126250   -8.411518484e-02   -1.118149832e-01
       21127500   -8.417725563e-02   -1.116050705e-01
       21128750   -8.393219858e-02   -1.111722663e-01
       21130000   -8.397851139e-02   -1.109127700e-01
       21131250   -8.388123661e-02   -1.104096398e-01
       21132500   -8.391063660e-02   -1.100819483e-01
       21133750   -8.394505084e-02   -1.098852977e-01
       21135000   -8.376570791e-02   -1.094347462e-01
       21136250   -8.390592784e-02   -1.090477034e-01
       21137500   -8.386491984e-02   -1.086437404e-01
       21138750   -8.368670940e-02   -1.084291339e-01
       21140000   -8.370802552e-02   -1.080687791e-01
       21141250   -8.360036463e-02   -1.076219305e-01
       21142500   -8.372039348e-02   -1.072979569e-01
       21143750   -8.375833929e-02   -1.069123074e-01
       21145000   -8.363828808e-02   -1.066437215e-01
       21146250   -8.353239298e-02   -1.062756032e-01
       21147500   -8.366483450e-02   -1.058886722e-01
       21148750   -8.352024853e-02   -1.054622084e-01
       21150000   -8.360449970e-02   -1.052034050e-01
       21151250   -8.360013366e-02   -1.048519164e-01
       21152500   -8.352119476e-02   -1.045220345e-01
       21153750   -8.351033181e-02   -1.040931866e-01
       21155000   -8.345118910e-02   -1.038353145e-01
       21156250   -8.340595663e-02   -1.034377143e-01
       21157500   -8.343522251e-02   -1.029896364e-01
       21158750   -8.332481980e-02   -1.027734131e-01
       21160000   -8.334981650e-02   -1.024146900e-01
       21161250   -8.345454931e-02   -1.019432247e-01
       21162500   -8.334869891e-02   -1.015551761e-01
       21163750   -8.336219937e-02   -1.011506096e-01
       21165000   -8.336717635e-02   -1.008903831e-01
       21166250   -8.325415105e-02   -1.005079374e-01
       21167500   -8.319970220e-02   -1.002560928e-01
       21168750   -8.308769017e-02   -9.981397539e-02
       21170000   -8.313808590e-02   -9.937759489e-02
       21171250   -8.315686882e-02   -9.905561805e-02
       21172500   -8.308193088e-02   -9.867060930e-02
       21173750   -8.307854831e-02   -9.835858643e-02
       21175000   -8.311702311e-02   -9.791687131e-02
       21176250   -8.301211149e-02   -9.750992060e-02
       21177500   -8.286692947e-02   -9.723772109e-02
       21178750   -8.299800009e-02   -9.687096626e-02
       21180000   -8.289878815e-02   -9.649273753e-02
       21181250   -8.283771574e-02   -9.605845064e-02
       21182500   -8.289718628e-02   -9.579128772e-02
       21183750   -8.279981464e-02   -9.546425194e-02
       21185000   -8.283084631e-02   -9.511214495e-02
       21186250   -8.280269802e-02   -9.455692768e-02
       21187500   -8.277443051e-02   -9.430237114e-02
       21188750   -8.269841224e-02   -9.384829551e-02
       21190000   -8.276580274e-02   -9.355084598e-02
       21191250   -8.276353031e-02   -9.319594502e-02
       21192500   -8.272645622e-02   -9.275965393e-02
       21193750   -8.262636513e-02   -9.233202040e-02
       21195000   -8.251687139e-02   -9.209186584e-02
       21196250   -8.256740123e-02   -9.161753207e-02
       21197500   -8.253565431e-02   -9.141540527e-02
       21198750   -8.246336877e-02   -9.094106406e-02
       21200000   -8.252026141e-02   -9.053109586e-02
       21201250   -8.242934942e-02   -9.021824598e-02
       21202500   -8.243953437e-02   -8.987988532e-02
       21203750   -8.231645077e-02   -8.936548233e-02
       21205000   -8.230395615e-02   -8.911976963e-02
       21206250   -8.239682764e-02   -8.881845325e-02
       21207500   -8.234085143e-02   -8.835384995e-02
       21208750   -8.237552643e-02   -8.794175088e-02
       21210000   -8.230380714e-02   -8.761917800e-02
       21211250   -8.232052624e-02   -8.721682429e-02
       21212500   -8.216106147e-02   -8.686619997e-02
       21213750   -8.221646398e-02   -8.648711443e-02
       21215000   -8.206251264e-02   -8.605951071e-02
       21216250   -8.207741380e-02   -8.575363457e-02
       21217500   -8.203203976e-02   -8.532938361e-02
       21218750   -8.202473074e-02   -8.503450453e-02
       21220000   -8.205012977e-02   -8.460014313e-02
       21221250   -8.191185445e-02   -8.418487012e-02
       21222500   -8.186762035e-02   -8.378989249e-02
       21223750   -8.197798580e-02   -8.347190917e-02
       21225000   -8.186790347e-02   -8.308467269e-02
       21226250   -8.167242259e-02   -8.261217177e-02
       21227500   -8.181378990e-02   -8.238086104e-02
       21228750   -8.175816387e-02   -8.197148144e-02
       21230000   -8.182369173e-02   -8.162850887e-02
       21231250   -8.163434267e-02   -8.125867695e-02
       21232500   -8.162963390e-02   -8.084444702e-02
       21233750   -8.162359893e-02   -8.048114181e-02
       21235000   -8.157267421e-02   -8.007647842e-02
       21236250   -8.147647232e-02   -7.967106253e-02
       21237500   -8.157023787e-02   -7.922861725e-02
       21238750   -8.141653240e-02   -7.900190353e-02
       21240000   -8.152494580e-02   -7.854527235e-02
       21241250   -8.145903051e-02   -7.834559679e-02
       21242500   -8.128463477e-02   -7.782486826e-02
       21243750   -8.134768903e-02   -7.756354660e-02
       21245000   -8.129587770e-02   -7.714852691e-02
       21246250   -8.119877428e-02   -7.690972835e-02
       21247500   -8.114131540e-02   -7.658383995e-02
       21248750   -8.135461807e-02   -7.632723451e-02
       21250000   -8.131316304e-02   -7.629700750e-02
       21251250   -8.133357763e-02   -7.587133348e-02
       21252500   -8.140743524e-02   -7.552140206e-02
       21253750   -8.126275986e-02   -7.524444163e-02
       21255000   -8.119733632e-02   -7.479596883e-02
       21256250   -8.125469834e-02   -7.437970489e-02
       21257500   -8.116035163e-02   -7.404551655e-02
       21258750   -8.111727238e-02   -7.361251861e-02
       21260000   -8.116116375e-02   -7.332053035e-02
       21261250   -8.122252673e-02   -7.293463498e-02
       21262500   -8.115532249e-02   -7.261826098e-02
       21263750   -8.108889312e-02   -7.213605195e-02
       21265000   -8.105171472e-02   -7.179173082e-02
       21266250   -8.100780100e-02   -7.131508738e-02
       21267500   -8.100482076e-02   -7.100331783e-02
       21268750   -8.080120385e-02   -7.064120471e-02
       21270000   -8.090127259e-02   -7.025893033e-02
       21271250   -8.089639246e-02   -6.987510622e-02
       21272500   -8.085969090e-02   -6.949159503e-02
       21273750   -8.075729012e-02   -6.908076257e-02
       21275000   -8.084686100e-02   -6.863258034e-02
       21276250   -8.074026555e-02   -6.838251650e-02
       21277500   -8.076357096e-02   -6.786148995e-02
       21278750   -8.069402725e-02   -6.751831621e-02
       21280000   -8.059260994e-02   -6.711257249e-02
       21281250   -8.063881099e-02   -6.665085256e-02
       21282500   -8.052615821e-02   -6.630120426e-02
       21283750   -8.043292910e-02   -6.587804854e-02
       21285000   -8.046013117e-02   -6.538662314e-02
       21286250   -8.047512174e-02   -6.509649754e-02
       21287500   -8.034957945e-02   -6.463085860e-02
       21288750   -8.045726269e-02   -6.429966539e-02
       21290000   -8.028045297e-02   -6.388540566e-02
       21291250   -8.035655320e-02   -6.336182356e-02
       21292500   -8.027761430e-02   -6.310486048e-02
       21293750   -8.021280169e-02   -6.268405914e-02
       21295000   -8.015914261e-02   -6.219436973e-02
       21296250   -8.007749915e-02   -6.166833639e-02
       21297500   -8.017593622e-02   -6.133251637e-02
       21298750   -8.008119464e-02   -6.104353443e-02
       21300000   -8.002351969e-02   -6.062413752e-02
       21301250   -7.996223867e-02   -6.010344252e-02
       21302500   -7.991173118e-02   -5.962014571e-02
       21303750   -7.985503972e-02   -5.939163640e-02
       21305000   -7.976035774e-02   -5.897924304e-02
       21306250   -7.974313200e-02   -5.840171129e-02
       21307500   -7.967185974e-02   -5.813763291e-02
       21308750   -7.959113270e-02   -5.772206187e-02
       21310000   -7.957789302e-02   -5.714661628e-02
       21311250   -7.949557900e-02   -5.679160357e-02
       21312500   -7.939374447e-02   -5.639063567e-02
       21313750   -7.949108630e-02   -5.604426935e-02
       21315000   -7.941586524e-02   -5.563477799e-02
       21316250   -7.932731509e-02   -5.518064275e-02
       21317500   -7.933910191e-02   -5.477656797e-02
       21318750   -7.918397337e-02   -5.418665707e-02
       21320000   -7.899718732e-02   -5.384616181e-02
       21321250   -7.918519527e-02   -5.343981087e-02
       21322500   -7.912942022e-02   -5.299013853e-02
       21323750   -7.895539701e-02   -5.258444324e-02
       21325000   -7.903420925e-02   -5.226744711e-02
       21326250   -7.898146659e-02   -5.185185745e-02
       21327500   -7.880912721e-02   -5.134002864e-02
       21328750   -7.875732332e-02   -5.100741982e-02
       21330000   -7.877305150e-02   -5.042998865e-02
       21331250   -7.863634825e-02   -5.009785667e-02
       21332500   -7.852335274e-02   -4.963475093e-02
       21333750   -7.852279395e-02   -4.929764941e-02
       21335000   -7.843828201e-02   -4.881255701e-02
       21336250   -7.850070298e-02   -4.838267341e-02
       21337500   -7.840447873e-02   -4.804342985e-02
       21338750   -7.823641598e-02   -4.753527045e-02
       21340000   -7.821356505e-02   -4.714255780e-02
       21341250   -7.815315574e-02   -4.658754915e-02
       21342500   -7.813192904e-02   -4.612220824e-02
       21343750   -7.804661244e-02   -4.572994635e-02
       21345000   -7.812736183e-02   -4.542338476e-02
       21346250   -7.791586220e-02   -4.496451840e-02
       21347500   -7.788702846e-02   -4.443224892e-02
       21348750   -7.784341276e-02   -4.405065253e-02
       21350000   -7.785362750e-02   -4.358021542e-02
       21351250   -7.767962664e-02   -4.319668934e-02
       21352500   -7.758957148e-02   -4.273006320e-02
       21353750   -7.745089382e-02   -4.239643365e-02
       21355000   -7.744964957e-02   -4.185137153e-02
       21356250   -7.743114233e-02   -4.149301350e-02
       21357500   -7.730981708e-02   -4.111968726e-02
       21358750   -7.729203254e-02   -4.060312361e-02
       21360000   -7.716175914e-02   -4.006509110e-02
       21361250   -7.710078359e-02   -3.973879293e-02
       21362500   -7.706445456e-02   -3.928069770e-02
       21363750   -7.704692334e-02   -3.877666593e-02
       21365000   -7.690951973e-02   -3.847570717e-02
       21366250   -7.689128071e-02   -3.813818470e-02
       21367500   -7.684297860e-02   -3.757268563e-02
       21368750   -7.659228891e-02   -3.715707734e-02
       21370000   -7.662704587e-02   -3.676128760e-02
       21371250   -7.656832039e-02   -3.630711883e-02
       21372500   -7.648108900e-02   -3.571116924e-02
       21373750   -7.643148303e-02   -3.540071473e-02
       21375000   -7.644730806e-02   -3.497727215e-02
       21376250   -7.604067028e-02   -3.443840891e-02
       21377500   -7.617079467e-02   -3.411661461e-02
       21378750   -7.610818744e-02   -3.373614699e-02
       21380000   -7.602089643e-02   -3.327878565e-02
       21381250   -7.608625293e-02   -3.278934583e-02
       21382500   -7.582748681e-02   -3.227299824e-02
       21383750   -7.573887706e-02   -3.181741014e-02
       21385000   -7.569020987e-02   -3.142232075e-02
       21386250   -7.568687946e-02   -3.098197095e-02
       21387500   -7.557906210e-02   -3.063555248e-02
       21388750   -7.539973408e-02   -3.024717793e-02
       21390000   -7.525029033e-02   -2.963234298e-02
       21391250   -7.517375797e-02   -2.924125642e-02
       21392500   -7.513423264e-02   -2.874226868e-02
       21393750   -7.517038286e-02   -2.827776223e-02
       21395000   -7.509681582e-02   -2.791867405e-02
       21396250   -7.495016605e-02   -2.745896205e-02
       21397500   -7.487452030e-02   -2.697507665e-02
       21398750   -7.484982908e-02   -2.654585056e-02
       21400000   -7.452470809e-02   -2.607722953e-02
       21401250   -7.461449504e-02   -2.561262250e-02
       21402500   -7.448688895e-02   -2.528023161e-02
       21403750   -7.447376102e-02   -2.483040839e-02
       21405000   -7.429609448e-02   -2.435065061e-02
       21406250   -7.408918440e-02   -2.398616821e-02
       21407500   -7.410680503e-02   -2.341121808e-02
       21408750   -7.401842624e-02   -2.297318541e-02
       21410000   -7.389070094e-02   -2.253319882e-02
       21411250   -7.381556928e-02   -2.209620923e-02
       21412500   -7.372693717e-02   -2.163048275e-02
       21413750   -7.360386848e-02   -2.116843686e-02
       21415000   -7.368980348e-02   -2.080976777e-02
       21416250   -7.342758030e-02   -2.024110593e-02
       21417500   -7.339610159e-02   -1.988943107e-02
       21418750   -7.326823473e-02   -1.944399439e-02
       21420000   -7.309700549e-02   -1.896876842e-02
       21421250   -7.309663296e-02   -1.851892844e-02
       21422500   -7.293911278e-02   -1.808858290e-02
       21423750   -7.291369140e-02   -1.765021309e-02
       21425000   -7.287530601e-02   -1.717397198e-02
       21426250   -7.265894115e-02   -1.687342860e-02
       21427500   -7.252410799e-02   -1.624964550e-02
       21428750   -7.241170108e-02   -1.574197039e-02
       21430000   -7.238599658e-02   -1.527436543e-02
       21431250   -7.219354808e-02   -1.487050764e-02
       21432500   -7.222601026e-02   -1.439873874e-02
       21433750   -7.218196988e-02   -1.407274045e-02
       21435000   -7.201991230e-02   -1.359083317e-02
       21436250   -7.184327394e-02   -1.300997473e-02
       21437500   -7.181069255e-02   -1.271809638e-02
       21438750   -7.179220021e-02   -1.216789428e-02
       21440000   -7.156661153e-02   -1.166477893e-02
       21441250   -7.141140848e-02   -1.130651496e-02
       21442500   -7.142055780e-02   -1.077533513e-02
       21443750   -7.123556733e-02   -1.043235883e-02
       21445000   -7.111214846e-02   -9.999070317e-03
       21446250   -7.109484076e-02   -9.489662014e-03
       21447500   -7.093647122e-02   -9.152712300e-03
       21448750   -7.074583322e-02   -8.652605116e-03
       21450000   -7.065507025e-02   -8.190066554e-03
       21451250   -7.071245462e-02   -7.698984817e-03
       21452500   -7.060822845e-02   -7.343988866e-03
       21453750   -7.043319196e-02   -6.912684534e-03
       21455000   -7.028851658e-02   -6.357841194e-03
       21456250   -7.029222697e-02   -5.787464324e-03
