! NanoVNA-App by OneOfEleven et al v1.1.209 (+OD18) 
! Date: 2025-07-14 21:05:33
! Start: 21MHz Stop: 21,5MHz Points: 801
! S-Parameter data: F S11 S21 S12 S22
# Hz S RI R 50
!     Frequency           S11_Real           S11_Imag           S21_Real           S21_Imag           S12_Real           S12_Imag           S22_Real           S22_Imag
       21000000   -8.748995513e-02   -1.458473951e-01   -1.181555831e-06   -1.366713150e-05    0.000000000e+00    0.000000000e+00    0.000000000e+00    0.000000000e+00
       21000625   -8.742915094e-02   -1.457860470e-01    5.342418081e-05   -4.274633829e-05    0.000000000e+00    0.000000000e+00    0.000000000e+00    0.000000000e+00
       21001250   -8.731081337e-02   -1.455573589e-01    1.568069638e-05   -2.297776155e-05    0.000000000e+00    0.000000000e+00    0.000000000e+00    0.000000000e+00
       21001875   -8.738603443e-02   -1.452921927e-01   -1.862103090e-05   -2.933315045e-05    0.000000000e+00    0.000000000e+00    0.000000000e+00    0.000000000e+00
       21002500   -8.741793036e-02   -1.451798230e-01   -4.586236537e-05   -3.133205246e-05    0.000000000e+00    0.000000000e+00    0.000000000e+00    0.000000000e+00
       21003125   -8.732681721e-02   -1.451188624e-01    4.617290870e-06   -1.120257093e-05    0.000000000e+00    0.000000000e+00    0.000000000e+00    0.000000000e+00
       21003750   -8.741070330e-02   -1.450171769e-01    2.230671998e-05    7.555745105e-05    0.000000000e+00    0.000000000e+00    0.000000000e+00    0.000000000e+00
       21004375   -8.742822707e-02   -1.447525918e-01   -2.225291610e-05   -1.402537055e-05    0.000000000e+00    0.000000000e+00    0.000000000e+00    0.000000000e+00
       21005000   -8.727188408e-02   -1.446281970e-01   -1.967138360e-06    4.423243445e-05    0.000000000e+00    0.000000000e+00    0.000000000e+00    0.000000000e+00
       21005625   -8.734565228e-02   -1.444809139e-01   -4.820223330e-05    4.420207915e-05    0.000000000e+00    0.000000000e+00    0.000000000e+00    0.000000000e+00
       21006250   -8.734389395e-02   -1.442470700e-01   -4.936398000e-06    1.721332410e-05    0.000000000e+00    0.000000000e+00    0.000000000e+00    0.000000000e+00
       21006875   -8.729317784e-02   -1.440783888e-01   -9.440167560e-06    7.386312518e-06    0.000000000e+00    0.000000000e+00    0.000000000e+00    0.000000000e+00
       21007500   -8.722902089e-02   -1.440195441e-01   -6.986635071e-06   -2.714939365e-05    0.000000000e+00    0.000000000e+00    0.000000000e+00    0.000000000e+00
       21008125   -8.735983819e-02   -1.436884403e-01    2.323994704e-05   -2.973263508e-05    0.000000000e+00    0.000000000e+00    0.000000000e+00    0.000000000e+00
       21008750   -8.723303676e-02   -1.436070651e-01    3.617549737e-05    1.249140769e-05    0.000000000e+00    0.000000000e+00    0.000000000e+00    0.000000000e+00
       21009375   -8.705665916e-02   -1.435362399e-01    7.824453496e-05    2.793274462e-06    0.000000000e+00    0.000000000e+00    0.000000000e+00    0.000000000e+00
       21010000   -8.724482358e-02   -1.434551626e-01   -4.632186392e-05   -4.666466702e-05    0.000000000e+00    0.000000000e+00    0.000000000e+00    0.000000000e+00
       21010625   -8.722600341e-02   -1.433067620e-01   -1.845555198e-05   -1.715256076e-05    0.000000000e+00    0.000000000e+00    0.000000000e+00    0.000000000e+00
       21011250   -8.733939379e-02   -1.430056244e-01   -2.787991434e-05    8.169526154e-06    0.000000000e+00    0.000000000e+00    0.000000000e+00    0.000000000e+00
       21011875   -8.707354218e-02   -1.427522451e-01    3.804955850e-05    4.186670594e-06    0.000000000e+00    0.000000000e+00    0.000000000e+00    0.000000000e+00
       21012500   -8.705512434e-02   -1.426780671e-01    8.245930985e-06    4.233969230e-05    0.000000000e+00    0.000000000e+00    0.000000000e+00    0.000000000e+00
       21013125   -8.729969710e-02   -1.426206231e-01   -1.021664229e-05    1.082409926e-05    0.000000000e+00    0.000000000e+00    0.000000000e+00    0.000000000e+00
       21013750   -8.722168952e-02   -1.423492134e-01   -3.032476343e-05    2.107859655e-05    0.000000000e+00    0.000000000e+00    0.000000000e+00    0.000000000e+00
       21014375   -8.732745051e-02   -1.421997696e-01   -4.996755251e-06   -3.420020903e-06    0.000000000e+00    0.000000000e+00    0.000000000e+00    0.000000000e+00
       21015000   -8.716110885e-02   -1.421472132e-01    3.956728688e-05    8.017352229e-06    0.000000000e+00    0.000000000e+00    0.000000000e+00    0.000000000e+00
       21015625   -8.707711101e-02   -1.419281214e-01   -3.223601425e-06   -1.676145075e-05    0.000000000e+00    0.000000000e+00    0.000000000e+00    0.000000000e+00
       21016250   -8.713456243e-02   -1.418751627e-01    6.265524348e-07    4.530649312e-05    0.000000000e+00    0.000000000e+00    0.000000000e+00    0.000000000e+00
       21016875   -8.710560948e-02   -1.414582431e-01   -3.748095696e-05   -4.609597818e-05    0.000000000e+00    0.000000000e+00    0.000000000e+00    0.000000000e+00
       21017500   -8.712982386e-02   -1.414570510e-01    2.785897232e-05   -3.318073868e-05    0.000000000e+00    0.000000000e+00    0.000000000e+00    0.000000000e+00
       21018125   -8.719692379e-02   -1.411825418e-01    4.504078606e-05   -2.407649617e-06    0.000000000e+00    0.000000000e+00    0.000000000e+00    0.000000000e+00
       21018750   -8.724153787e-02   -1.410161406e-01    2.056126868e-05   -5.003808110e-05    0.000000000e+00    0.000000000e+00    0.000000000e+00    0.000000000e+00
       21019375   -8.701050282e-02   -1.407817602e-01   -1.457478265e-05   -2.712823880e-05    0.000000000e+00    0.000000000e+00    0.000000000e+00    0.000000000e+00
       21020000   -8.710514754e-02   -1.407800466e-01    1.685384632e-06    9.168677025e-06    0.000000000e+00    0.000000000e+00    0.000000000e+00    0.000000000e+00
       21020625   -8.693538606e-02   -1.406044066e-01    1.750372394e-05   -7.802090840e-05    0.000000000e+00    0.000000000e+00    0.000000000e+00    0.000000000e+00
       21021250   -8.699186891e-02   -1.404864788e-01    7.719206769e-05    1.233467515e-06    0.000000000e+00    0.000000000e+00    0.000000000e+00    0.000000000e+00
       21021875   -8.708705753e-02   -1.404805481e-01   -2.020760803e-05    4.840074325e-06    0.000000000e+00    0.000000000e+00    0.000000000e+00    0.000000000e+00
       21022500   -8.700089157e-02   -1.401032209e-01   -2.651221803e-05   -1.765413981e-05    0.000000000e+00    0.000000000e+00    0.000000000e+00    0.000000000e+00
       21023125   -8.696383983e-02   -1.398045421e-01   -6.897350886e-06   -1.529954716e-05    0.000000000e+00    0.000000000e+00    0.000000000e+00    0.000000000e+00
       21023750   -8.714388311e-02   -1.397388577e-01    1.462663931e-05    5.752527431e-05    0.000000000e+00    0.000000000e+00    0.000000000e+00    0.000000000e+00
       21024375   -8.702263236e-02   -1.395895034e-01    6.690008740e-05    2.990977373e-05    0.000000000e+00    0.000000000e+00    0.000000000e+00    0.000000000e+00
       21025000   -8.695403486e-02   -1.396864057e-01    3.901837408e-05   -7.095442015e-06    0.000000000e+00    0.000000000e+00    0.000000000e+00    0.000000000e+00
       21025625   -8.705620468e-02   -1.393856853e-01   -3.014773029e-06    1.251987487e-05    0.000000000e+00    0.000000000e+00    0.000000000e+00    0.000000000e+00
       21026250   -8.697883040e-02   -1.392066628e-01   -2.051687989e-05    3.401991125e-05    0.000000000e+00    0.000000000e+00    0.000000000e+00    0.000000000e+00
       21026875   -8.694776148e-02   -1.390986890e-01   -1.336462628e-05   -1.203399552e-05    0.000000000e+00    0.000000000e+00    0.000000000e+00    0.000000000e+00
       21027500   -8.686947823e-02   -1.387678981e-01    1.530249392e-05    5.466969014e-05    0.000000000e+00    0.000000000e+00    0.000000000e+00    0.000000000e+00
       21028125   -8.686501533e-02   -1.388374418e-01    6.097962250e-05    4.659058050e-06    0.000000000e+00    0.000000000e+00    0.000000000e+00    0.000000000e+00
       21028750   -8.680241555e-02   -1.383856535e-01   -4.025636008e-05    6.068355651e-05    0.000000000e+00    0.000000000e+00    0.000000000e+00    0.000000000e+00
       21029375   -8.681033552e-02   -1.383130103e-01   -1.491453418e-06    3.461281813e-05    0.000000000e+00    0.000000000e+00    0.000000000e+00    0.000000000e+00
       21030000   -8.680078387e-02   -1.381538212e-01    3.185385867e-05    1.674993655e-05    0.000000000e+00    0.000000000e+00    0.000000000e+00    0.000000000e+00
       21030625   -8.685307205e-02   -1.381174624e-01    3.247412315e-05    7.062706572e-05    0.000000000e+00    0.000000000e+00    0.000000000e+00    0.000000000e+00
       21031250   -8.685275912e-02   -1.380882114e-01    8.839193470e-06   -1.530061490e-05    0.000000000e+00    0.000000000e+00    0.000000000e+00    0.000000000e+00
       21031875   -8.669443429e-02   -1.377791017e-01    2.455139565e-06   -1.858578253e-05    0.000000000e+00    0.000000000e+00    0.000000000e+00    0.000000000e+00
       21032500   -8.686114848e-02   -1.373709291e-01    8.199515833e-06   -3.568498869e-05    0.000000000e+00    0.000000000e+00    0.000000000e+00    0.000000000e+00
       21033125   -8.680896461e-02   -1.374826729e-01    2.148550493e-06   -3.520749669e-05    0.000000000e+00    0.000000000e+00    0.000000000e+00    0.000000000e+00
       21033750   -8.668400347e-02   -1.371538043e-01   -9.481403140e-06    3.204316454e-05    0.000000000e+00    0.000000000e+00    0.000000000e+00    0.000000000e+00
       21034375   -8.671057224e-02   -1.369414032e-01   -1.765965681e-05   -3.610968633e-05    0.000000000e+00    0.000000000e+00    0.000000000e+00    0.000000000e+00
       21035000   -8.682917804e-02   -1.367700845e-01   -1.513649022e-05   -3.785073932e-05    0.000000000e+00    0.000000000e+00    0.000000000e+00    0.000000000e+00
       21035625   -8.673530072e-02   -1.366350353e-01   -3.073847984e-05    1.586637336e-05    0.000000000e+00    0.000000000e+00    0.000000000e+00    0.000000000e+00
       21036250   -8.660592139e-02   -1.364246160e-01    5.823976608e-06   -3.307892621e-05    0.000000000e+00    0.000000000e+00    0.000000000e+00    0.000000000e+00
       21036875   -8.679426461e-02   -1.365024745e-01    3.795042721e-05   -2.479426439e-05    0.000000000e+00    0.000000000e+00    0.000000000e+00    0.000000000e+00
       21037500   -8.676732332e-02   -1.361648738e-01    2.758260234e-05   -6.538481102e-06    0.000000000e+00    0.000000000e+00    0.000000000e+00    0.000000000e+00
       21038125   -8.664438874e-02   -1.359578669e-01   -3.192219447e-05   -1.790277020e-05    0.000000000e+00    0.000000000e+00    0.000000000e+00    0.000000000e+00
       21038750   -8.669351041e-02   -1.359245777e-01    9.893544302e-06   -7.124554031e-07    0.000000000e+00    0.000000000e+00    0.000000000e+00    0.000000000e+00
       21039375   -8.675745130e-02   -1.357897073e-01    4.382912812e-05   -1.802996121e-05    0.000000000e+00    0.000000000e+00    0.000000000e+00    0.000000000e+00
       21040000   -8.666882664e-02   -1.355909705e-01   -9.010398571e-06    5.179758591e-05    0.000000000e+00    0.000000000e+00    0.000000000e+00    0.000000000e+00
       21040625   -8.652501553e-02   -1.353753507e-01   -1.204821638e-05    1.871492350e-05    0.000000000e+00    0.000000000e+00    0.000000000e+00    0.000000000e+00
       21041250   -8.653961867e-02   -1.352412105e-01    1.456574682e-05    4.738788266e-05    0.000000000e+00    0.000000000e+00    0.000000000e+00    0.000000000e+00
       21041875   -8.644042164e-02   -1.349799335e-01    3.017134304e-06   -7.289307177e-06    0.000000000e+00    0.000000000e+00    0.000000000e+00    0.000000000e+00
       21042500   -8.651464432e-02   -1.349041015e-01   -6.936096179e-05    1.861198507e-05    0.000000000e+00    0.000000000e+00    0.000000000e+00    0.000000000e+00
       21043125   -8.659164608e-02   -1.346591264e-01    5.450948720e-06   -4.750024527e-05    0.000000000e+00    0.000000000e+00    0.000000000e+00    0.000000000e+00
       21043750   -8.658849448e-02   -1.345004886e-01    4.348808943e-06   -4.906449612e-05    0.000000000e+00    0.000000000e+00    0.000000000e+00    0.000000000e+00
       21044375   -8.650600910e-02   -1.343602091e-01   -5.695302025e-05   -8.041738511e-06    0.000000000e+00    0.000000000e+00    0.000000000e+00    0.000000000e+00
       21045000   -8.651280403e-02   -1.341866851e-01    3.699105218e-05    9.634545677e-06    0.000000000e+00    0.000000000e+00    0.000000000e+00    0.000000000e+00
       21045625   -8.654782176e-02   -1.340861320e-01    3.519841812e-06    4.021831501e-06    0.000000000e+00    0.000000000e+00    0.000000000e+00    0.000000000e+00
       21046250   -8.654034138e-02   -1.339072734e-01    1.372049701e-05   -5.515358680e-06    0.000000000e+00    0.000000000e+00    0.000000000e+00    0.000000000e+00
       21046875   -8.650574088e-02   -1.336997598e-01   -2.858085463e-05   -2.067887181e-05    0.000000000e+00    0.000000000e+00    0.000000000e+00    0.000000000e+00
       21047500   -8.646126837e-02   -1.335377544e-01   -1.186571171e-05    4.963891843e-05    0.000000000e+00    0.000000000e+00    0.000000000e+00    0.000000000e+00
       21048125   -8.655653149e-02   -1.333918124e-01    7.132387054e-06    6.308675074e-05    0.000000000e+00    0.000000000e+00    0.000000000e+00    0.000000000e+00
       21048750   -8.644843102e-02   -1.332624704e-01    1.596151196e-05    6.678191130e-05    0.000000000e+00    0.000000000e+00    0.000000000e+00    0.000000000e+00
       21049375   -8.644368500e-02   -1.331774443e-01   -2.955102536e-05    4.359116429e-05    0.000000000e+00    0.000000000e+00    0.000000000e+00    0.000000000e+00
       21050000   -8.627559990e-02   -1.328474581e-01   -2.258358109e-05   -6.537421996e-06    0.000000000e+00    0.000000000e+00    0.000000000e+00    0.000000000e+00
       21050625   -8.653584868e-02   -1.326347142e-01    1.849108048e-05   -5.960728959e-05    0.000000000e+00    0.000000000e+00    0.000000000e+00    0.000000000e+00
       21051250   -8.648400754e-02   -1.324479431e-01    3.073254993e-05    1.605657963e-05    0.000000000e+00    0.000000000e+00    0.000000000e+00    0.000000000e+00
       21051875   -8.642248064e-02   -1.322655529e-01   -3.144604125e-05    2.662969200e-05    0.000000000e+00    0.000000000e+00    0.000000000e+00    0.000000000e+00
       21052500   -8.646232635e-02   -1.322116703e-01    4.190352411e-05   -6.703445251e-06    0.000000000e+00    0.000000000e+00    0.000000000e+00    0.000000000e+00
       21053125   -8.637943864e-02   -1.320425719e-01    2.999688149e-05    2.551199759e-05    0.000000000e+00    0.000000000e+00    0.000000000e+00    0.000000000e+00
       21053750   -8.633290976e-02   -1.319230050e-01   -1.385923133e-05    4.467440704e-06    0.000000000e+00    0.000000000e+00    0.000000000e+00    0.000000000e+00
       21054375   -8.642746508e-02   -1.317600757e-01   -1.262562182e-05    2.125984429e-05    0.000000000e+00    0.000000000e+00    0.000000000e+00    0.000000000e+00
       21055000   -8.634667844e-02   -1.315308511e-01    3.632027438e-05    4.138181339e-06    0.000000000e+00    0.000000000e+00    0.000000000e+00    0.000000000e+00
       21055625   -8.621711284e-02   -1.312745214e-01   -3.804640528e-06   -4.900492422e-05    0.000000000e+00    0.000000000e+00    0.000000000e+00    0.000000000e+00
       21056250   -8.621497452e-02   -1.311220676e-01   -3.741450655e-06   -1.369476740e-05    0.000000000e+00    0.000000000e+00    0.000000000e+00    0.000000000e+00
       21056875   -8.629387617e-02   -1.310518533e-01   -3.411028274e-06   -1.615726251e-05    0.000000000e+00    0.000000000e+00    0.000000000e+00    0.000000000e+00
       21057500   -8.629508317e-02   -1.308248490e-01    3.899536023e-05    1.828522045e-07    0.000000000e+00    0.000000000e+00    0.000000000e+00    0.000000000e+00
       21058125   -8.630535752e-02   -1.308251619e-01    1.491563035e-05    1.379558762e-05    0.000000000e+00    0.000000000e+00    0.000000000e+00    0.000000000e+00
       21058750   -8.628266305e-02   -1.306393147e-01   -2.091394663e-06    1.412734150e-06    0.000000000e+00    0.000000000e+00    0.000000000e+00    0.000000000e+00
       21059375   -8.631785214e-02   -1.305032223e-01    6.054968708e-06   -2.866453724e-05    0.000000000e+00    0.000000000e+00    0.000000000e+00    0.000000000e+00
       21060000   -8.624860644e-02   -1.302364469e-01    4.984199404e-05   -7.469349384e-06    0.000000000e+00    0.000000000e+00    0.000000000e+00    0.000000000e+00
       21060625   -8.613152057e-02   -1.299723983e-01    1.020983382e-05    1.544654333e-05    0.000000000e+00    0.000000000e+00    0.000000000e+00    0.000000000e+00
       21061250   -8.619631082e-02   -1.298702061e-01    1.954765685e-05    6.204705278e-05    0.000000000e+00    0.000000000e+00    0.000000000e+00    0.000000000e+00
       21061875   -8.626039326e-02   -1.297128499e-01   -3.179458508e-05   -6.122388004e-05    0.000000000e+00    0.000000000e+00    0.000000000e+00    0.000000000e+00
       21062500   -8.609192818e-02   -1.294742376e-01   -7.549394650e-05    3.177499457e-05    0.000000000e+00    0.000000000e+00    0.000000000e+00    0.000000000e+00
       21063125   -8.617217839e-02   -1.293210685e-01    5.456231065e-06    2.670986396e-05    0.000000000e+00    0.000000000e+00    0.000000000e+00    0.000000000e+00
       21063750   -8.610483259e-02   -1.292779595e-01    2.851567842e-05   -2.294960723e-05    0.000000000e+00    0.000000000e+00    0.000000000e+00    0.000000000e+00
       21064375   -8.603974432e-02   -1.292382032e-01   -1.409028209e-05    4.114484909e-05    0.000000000e+00    0.000000000e+00    0.000000000e+00    0.000000000e+00
       21065000   -8.605996519e-02   -1.289297044e-01    1.820726538e-05    4.884182999e-05    0.000000000e+00    0.000000000e+00    0.000000000e+00    0.000000000e+00
       21065625   -8.604606986e-02   -1.287654638e-01   -8.966885616e-06   -1.414077246e-06    0.000000000e+00    0.000000000e+00    0.000000000e+00    0.000000000e+00
       21066250   -8.599771559e-02   -1.286278814e-01    9.797902749e-06    3.306681538e-05    0.000000000e+00    0.000000000e+00    0.000000000e+00    0.000000000e+00
       21066875   -8.605416119e-02   -1.284535229e-01    6.515302812e-05   -1.582838377e-05    0.000000000e+00    0.000000000e+00    0.000000000e+00    0.000000000e+00
       21067500   -8.614511043e-02   -1.282962412e-01   -4.005203664e-05   -3.440738146e-05    0.000000000e+00    0.000000000e+00    0.000000000e+00    0.000000000e+00
       21068125   -8.602258563e-02   -1.280768067e-01    4.310498753e-06   -3.593189467e-05    0.000000000e+00    0.000000000e+00    0.000000000e+00    0.000000000e+00
       21068750   -8.606326580e-02   -1.279052496e-01   -1.344551129e-05    8.836286725e-06    0.000000000e+00    0.000000000e+00    0.000000000e+00    0.000000000e+00
       21069375   -8.608479798e-02   -1.277345121e-01   -3.392004510e-05    1.036201138e-05    0.000000000e+00    0.000000000e+00    0.000000000e+00    0.000000000e+00
       21070000   -8.611065894e-02   -1.275734007e-01   -8.044124115e-06    2.965216663e-05    0.000000000e+00    0.000000000e+00    0.000000000e+00    0.000000000e+00
       21070625   -8.603347838e-02   -1.274193227e-01    3.016137634e-05    4.490865103e-05    0.000000000e+00    0.000000000e+00    0.000000000e+00    0.000000000e+00
       21071250   -8.600815386e-02   -1.272691935e-01    1.424104994e-05   -2.794381908e-05    0.000000000e+00    0.000000000e+00    0.000000000e+00    0.000000000e+00
       21071875   -8.602853119e-02   -1.271512508e-01   -7.573648418e-06    3.779573672e-05    0.000000000e+00    0.000000000e+00    0.000000000e+00    0.000000000e+00
       21072500   -8.604122698e-02   -1.268439889e-01    3.825300519e-05    2.186834354e-05    0.000000000e+00    0.000000000e+00    0.000000000e+00    0.000000000e+00
