! NanoVNA-App by OneOfEleven et al v1.1.209 (+OD18) 
! Date: 2025-07-14 21:04:21
! Start: 19MHz Stop: 22MHz Points: 801
! S-Parameter data: F S11
# Hz S RI R 50
!     Frequency           S11_Real           S11_Imag
       19000000    1.114274114e-01   -7.752146125e-01
       19003750    1.100609973e-01   -7.747765779e-01
       19007500    1.085973829e-01   -7.742698193e-01
       19011250    1.070961058e-01   -7.738714814e-01
       19015000    1.055753827e-01   -7.734811306e-01
       19018750    1.041456908e-01   -7.729407549e-01
       19022500    1.025722474e-01   -7.724143863e-01
       19026250    1.013153344e-01   -7.719950080e-01
       19030000    9.979421645e-02   -7.714512348e-01
       19033750    9.834577143e-02   -7.709688544e-01
       19037500    9.687846899e-02   -7.704424858e-01
       19041250    9.537917376e-02   -7.698281407e-01
       19045000    9.391040355e-02   -7.693327069e-01
       19048750    9.260495752e-02   -7.687900066e-01
       19052500    9.118513018e-02   -7.681503892e-01
       19056250    8.960262686e-02   -7.675027847e-01
       19060000    8.835796267e-02   -7.670669556e-01
       19063750    8.696218580e-02   -7.664032578e-01
       19067500    8.549668640e-02   -7.656130195e-01
       19071250    8.405262232e-02   -7.651088834e-01
       19075000    8.277721703e-02   -7.643834352e-01
       19078750    8.137531579e-02   -7.636477351e-01
       19082500    8.000794798e-02   -7.632548809e-01
       19086250    7.862311602e-02   -7.624168992e-01
       19090000    7.721607387e-02   -7.617487907e-01
       19093750    7.602656633e-02   -7.611225843e-01
       19097500    7.457249612e-02   -7.603621483e-01
       19101250    7.319165021e-02   -7.598034143e-01
       19105000    7.192483544e-02   -7.591425776e-01
       19108750    7.053694874e-02   -7.582722306e-01
       19112500    6.920007616e-02   -7.575578690e-01
       19116250    6.794117391e-02   -7.570387721e-01
       19120000    6.667855382e-02   -7.564600706e-01
       19123750    6.522168964e-02   -7.555499673e-01
       19127500    6.413280219e-02   -7.548683882e-01
       19131250    6.254010648e-02   -7.541027665e-01
       19135000    6.132697314e-02   -7.532507777e-01
       19138750    6.008316204e-02   -7.527137399e-01
       19142500    5.874770135e-02   -7.519422174e-01
       19146250    5.737875402e-02   -7.510865927e-01
       19150000    5.615302175e-02   -7.503959537e-01
       19153750    5.495713279e-02   -7.496998906e-01
       19157500    5.352387205e-02   -7.488462329e-01
       19161250    5.234192312e-02   -7.481256127e-01
       19165000    5.112082139e-02   -7.475303411e-01
       19168750    4.976776987e-02   -7.466282248e-01
       19172500    4.863298684e-02   -7.460137606e-01
       19176250    4.716284573e-02   -7.452076674e-01
       19180000    4.596680775e-02   -7.444362640e-01
       19183750    4.461877793e-02   -7.438141108e-01
       19187500    4.365791380e-02   -7.429685593e-01
       19191250    4.237645864e-02   -7.420687675e-01
       19195000    4.109060392e-02   -7.415660620e-01
       19198750    3.972093761e-02   -7.405609488e-01
       19202500    3.874152154e-02   -7.397181392e-01
       19206250    3.754162788e-02   -7.390550971e-01
       19210000    3.647049889e-02   -7.379908562e-01
       19213750    3.541375697e-02   -7.370025516e-01
       19217500    3.420845792e-02   -7.361364365e-01
       19221250    3.300162777e-02   -7.352657914e-01
       19225000    3.167917579e-02   -7.341070175e-01
       19228750    3.041505255e-02   -7.336429358e-01
       19232500    2.900661528e-02   -7.327501178e-01
       19236250    2.789890580e-02   -7.318134904e-01
       19240000    2.646043710e-02   -7.311002612e-01
       19243750    2.530022338e-02   -7.302999496e-01
       19247500    2.403980866e-02   -7.292557359e-01
       19251250    2.274692804e-02   -7.285845280e-01
       19255000    2.133554593e-02   -7.278407812e-01
       19258750    2.007338218e-02   -7.269481421e-01
       19262500    1.875488088e-02   -7.262335420e-01
       19266250    1.732735708e-02   -7.253112197e-01
       19270000    1.618282683e-02   -7.243587375e-01
       19273750    1.481790934e-02   -7.234966159e-01
       19277500    1.350804698e-02   -7.228232026e-01
       19281250    1.233978663e-02   -7.218897343e-01
       19285000    1.092964318e-02   -7.210351229e-01
       19288750    9.500836022e-03   -7.201033235e-01
       19292500    8.284700103e-03   -7.191194296e-01
       19296250    6.795028225e-03   -7.183518410e-01
       19300000    5.425649695e-03   -7.176165581e-01
       19303750    4.238920752e-03   -7.165984511e-01
       19307500    2.965349704e-03   -7.157304287e-01
       19311250    1.521224156e-03   -7.149079442e-01
       19315000    2.121255966e-04   -7.139763236e-01
       19318750   -1.213899581e-03   -7.130464911e-01
       19322500   -2.579409629e-03   -7.121482491e-01
       19326250   -3.924401477e-03   -7.111265063e-01
       19330000   -5.186771974e-03   -7.102813721e-01
       19333750   -6.652620621e-03   -7.092657089e-01
       19337500   -7.934582420e-03   -7.082770467e-01
       19341250   -9.186667390e-03   -7.073535919e-01
       19345000   -1.077822503e-02   -7.064684033e-01
       19348750   -1.205383614e-02   -7.054874301e-01
       19352500   -1.327983476e-02   -7.043933272e-01
       19356250   -1.475497801e-02   -7.034638524e-01
       19360000   -1.598133333e-02   -7.025620341e-01
       19363750   -1.731739752e-02   -7.014138103e-01
       19367500   -1.873454452e-02   -7.003243566e-01
       19371250   -2.001278661e-02   -6.993934512e-01
       19375000   -2.230274864e-02   -6.994706392e-01
       19378750   -2.378330007e-02   -6.984190345e-01
       19382500   -2.519361861e-02   -6.975262165e-01
       19386250   -2.647578344e-02   -6.963767409e-01
       19390000   -2.793142386e-02   -6.952705979e-01
       19393750   -2.923221514e-02   -6.941657066e-01
       19397500   -3.053356893e-02   -6.930202842e-01
       19401250   -3.194740787e-02   -6.920179129e-01
       19405000   -3.314338624e-02   -6.907763481e-01
       19408750   -3.440050036e-02   -6.897868514e-01
       19412500   -3.581240028e-02   -6.886939406e-01
       19416250   -3.710873425e-02   -6.875122190e-01
       19420000   -3.851823136e-02   -6.863564849e-01
       19423750   -3.978553787e-02   -6.851177812e-01
       19427500   -4.116632789e-02   -6.840224266e-01
       19431250   -4.230316728e-02   -6.829318404e-01
       19435000   -4.362106323e-02   -6.815797687e-01
       19438750   -4.508054629e-02   -6.803444028e-01
       19442500   -4.622371867e-02   -6.791567206e-01
       19446250   -4.758699611e-02   -6.779493690e-01
       19450000   -4.906300455e-02   -6.768184304e-01
       19453750   -5.016062409e-02   -6.754769683e-01
       19457500   -5.144632235e-02   -6.743806005e-01
       19461250   -5.271164328e-02   -6.729089022e-01
       19465000   -5.389623716e-02   -6.718278527e-01
       19468750   -5.541297793e-02   -6.704156399e-01
       19472500   -5.658729374e-02   -6.693099141e-01
       19476250   -5.778278783e-02   -6.678304672e-01
       19480000   -5.904412270e-02   -6.666322351e-01
       19483750   -6.027659774e-02   -6.652179956e-01
       19487500   -6.145483628e-02   -6.640226245e-01
       19491250   -6.279326975e-02   -6.625399590e-01
       19495000   -6.404174864e-02   -6.613601446e-01
       19498750   -6.509943306e-02   -6.599178314e-01
       19502500   -6.650643796e-02   -6.585585475e-01
       19506250   -6.781432778e-02   -6.572463512e-01
       19510000   -6.876755506e-02   -6.557710767e-01
       19513750   -7.016903162e-02   -6.545954347e-01
       19517500   -7.133268565e-02   -6.531138420e-01
       19521250   -7.238046825e-02   -6.517552137e-01
       19525000   -7.378187031e-02   -6.503087282e-01
       19528750   -7.485006750e-02   -6.489633918e-01
       19532500   -7.600881904e-02   -6.475540996e-01
       19536250   -7.730108500e-02   -6.460445523e-01
       19540000   -7.835857570e-02   -6.447138786e-01
       19543750   -7.941926271e-02   -6.431840658e-01
       19547500   -8.068202436e-02   -6.417502165e-01
       19551250   -8.171007782e-02   -6.402429342e-01
       19555000   -8.299239725e-02   -6.389009356e-01
       19558750   -8.415389806e-02   -6.373646259e-01
       19562500   -8.515097201e-02   -6.358726025e-01
       19566250   -8.625668287e-02   -6.344850659e-01
       19570000   -8.729512990e-02   -6.330701709e-01
       19573750   -8.840604872e-02   -6.314573884e-01
       19577500   -8.965647221e-02   -6.299290657e-01
       19581250   -9.081634134e-02   -6.282407045e-01
       19585000   -9.173560888e-02   -6.269997358e-01
       19588750   -9.288538247e-02   -6.254158616e-01
       19592500   -9.383676201e-02   -6.237314939e-01
       19596250   -9.503453970e-02   -6.222959161e-01
       19600000   -9.608445317e-02   -6.207599640e-01
       19603750   -9.696989506e-02   -6.191270947e-01
       19607500   -9.816973656e-02   -6.176914573e-01
       19611250   -9.910801053e-02   -6.160941720e-01
       19615000   -1.001483575e-01   -6.145637035e-01
       19618750   -1.010365337e-01   -6.128532887e-01
       19622500   -1.020221338e-01   -6.113737822e-01
       19626250   -1.031042263e-01   -6.098467708e-01
       19630000   -1.042412296e-01   -6.082090735e-01
       19633750   -1.049083322e-01   -6.066213846e-01
       19637500   -1.059749126e-01   -6.050162315e-01
       19641250   -1.070858613e-01   -6.033734083e-01
       19645000   -1.078421846e-01   -6.018003225e-01
       19648750   -1.090171933e-01   -6.000446081e-01
       19652500   -1.098077372e-01   -5.983519554e-01
       19656250   -1.106552407e-01   -5.969099402e-01
       19660000   -1.118229851e-01   -5.951504111e-01
       19663750   -1.125071198e-01   -5.934821367e-01
       19667500   -1.133878827e-01   -5.919783115e-01
       19671250   -1.144450381e-01   -5.902671218e-01
       19675000   -1.152934134e-01   -5.885484815e-01
       19678750   -1.160757989e-01   -5.868616104e-01
       19682500   -1.168944240e-01   -5.852877498e-01
       19686250   -1.180387512e-01   -5.833273530e-01
       19690000   -1.187346727e-01   -5.817982554e-01
       19693750   -1.195891127e-01   -5.799795389e-01
       19697500   -1.201522723e-01   -5.782310367e-01
       19701250   -1.212469712e-01   -5.766791701e-01
       19705000   -1.219430044e-01   -5.749410987e-01
       19708750   -1.228685677e-01   -5.731831193e-01
       19712500   -1.236035600e-01   -5.716617703e-01
       19716250   -1.242743731e-01   -5.698783994e-01
       19720000   -1.249353662e-01   -5.678271651e-01
       19723750   -1.259569377e-01   -5.662843585e-01
       19727500   -1.265465319e-01   -5.644352436e-01
       19731250   -1.273526698e-01   -5.627689362e-01
       19735000   -1.280198693e-01   -5.610927343e-01
       19738750   -1.287367195e-01   -5.593366027e-01
       19742500   -1.294535398e-01   -5.574643016e-01
       19746250   -1.302098483e-01   -5.557466745e-01
       19750000   -1.309902519e-01   -5.538846850e-01
       19753750   -1.315851063e-01   -5.523918271e-01
       19757500   -1.321696043e-01   -5.502845049e-01
       19761250   -1.328580081e-01   -5.485589504e-01
       19765000   -1.334491819e-01   -5.469389558e-01
       19768750   -1.340343058e-01   -5.452280641e-01
       19772500   -1.347782314e-01   -5.433546901e-01
       19776250   -1.352097541e-01   -5.419337153e-01
       19780000   -1.359038353e-01   -5.397444963e-01
       19783750   -1.365336478e-01   -5.378704071e-01
       19787500   -1.370957196e-01   -5.361319184e-01
       19791250   -1.376261413e-01   -5.343120098e-01
       19795000   -1.383327395e-01   -5.325410366e-01
       19798750   -1.387040764e-01   -5.308128595e-01
       19802500   -1.393962801e-01   -5.289406776e-01
       19806250   -1.399126351e-01   -5.270103216e-01
       19810000   -1.403147131e-01   -5.252686739e-01
       19813750   -1.409872174e-01   -5.234318376e-01
       19817500   -1.413310319e-01   -5.215922594e-01
       19821250   -1.417080313e-01   -5.198631287e-01
       19825000   -1.421683133e-01   -5.179962516e-01
       19828750   -1.426815540e-01   -5.162747502e-01
       19832500   -1.431267709e-01   -5.145919919e-01
       19836250   -1.436052769e-01   -5.127090216e-01
       19840000   -1.438608319e-01   -5.105490088e-01
       19843750   -1.443072110e-01   -5.089996457e-01
       19847500   -1.448753327e-01   -5.072459579e-01
       19851250   -1.451660097e-01   -5.055156946e-01
       19855000   -1.453603208e-01   -5.035516024e-01
       19858750   -1.457415968e-01   -5.018024445e-01
       19862500   -1.462522298e-01   -4.998897910e-01
       19866250   -1.465730816e-01   -4.981571734e-01
       19870000   -1.469153017e-01   -4.963076413e-01
       19873750   -1.470607668e-01   -4.945540130e-01
       19877500   -1.476080567e-01   -4.926687479e-01
       19881250   -1.478614509e-01   -4.910574555e-01
       19885000   -1.480563730e-01   -4.891362190e-01
       19888750   -1.483781934e-01   -4.874198735e-01
       19892500   -1.485890448e-01   -4.855726063e-01
       19896250   -1.486697942e-01   -4.839375615e-01
       19900000   -1.489957720e-01   -4.819166958e-01
       19903750   -1.492939144e-01   -4.802021086e-01
       19907500   -1.493845880e-01   -4.784107506e-01
       19911250   -1.495438665e-01   -4.767547250e-01
       19915000   -1.499641985e-01   -4.749197066e-01
       19918750   -1.501059532e-01   -4.731500745e-01
       19922500   -1.502180547e-01   -4.714083076e-01
       19926250   -1.504478455e-01   -4.694710672e-01
       19930000   -1.503887028e-01   -4.678018391e-01
       19933750   -1.505168378e-01   -4.660407901e-01
       19937500   -1.508377790e-01   -4.643498659e-01
       19941250   -1.510200202e-01   -4.625238180e-01
       19945000   -1.509837210e-01   -4.606991112e-01
       19948750   -1.511774659e-01   -4.590559006e-01
       19952500   -1.512785256e-01   -4.572065771e-01
       19956250   -1.512669027e-01   -4.554523528e-01
       19960000   -1.513896883e-01   -4.537691772e-01
       19963750   -1.514956802e-01   -4.519469440e-01
       19967500   -1.514572352e-01   -4.502973258e-01
       19971250   -1.515456289e-01   -4.486945271e-01
       19975000   -1.516467780e-01   -4.469505250e-01
       19978750   -1.516307890e-01   -4.450465441e-01
       19982500   -1.516266316e-01   -4.434235096e-01
       19986250   -1.517692655e-01   -4.417499602e-01
       19990000   -1.516435146e-01   -4.399957061e-01
       19993750   -1.516392231e-01   -4.384642541e-01
       19997500   -1.516786963e-01   -4.365795255e-01
       20001250   -1.516687274e-01   -4.349740744e-01
       20005000   -1.516863704e-01   -4.332959056e-01
       20008750   -1.516084820e-01   -4.314937592e-01
       20012500   -1.514352709e-01   -4.300424159e-01
       20016250   -1.515557617e-01   -4.282830060e-01
       20020000   -1.514641941e-01   -4.265939891e-01
       20023750   -1.512884796e-01   -4.248618186e-01
       20027500   -1.514342725e-01   -4.233023822e-01
       20031250   -1.512522250e-01   -4.216254354e-01
       20035000   -1.511125714e-01   -4.199454486e-01
       20038750   -1.509764344e-01   -4.184011817e-01
       20042500   -1.509619802e-01   -4.167385995e-01
       20046250   -1.507654339e-01   -4.151988626e-01
       20050000   -1.507463157e-01   -4.135686159e-01
       20053750   -1.506202370e-01   -4.119077325e-01
       20057500   -1.503976732e-01   -4.103876352e-01
       20061250   -1.503446996e-01   -4.087009728e-01
       20065000   -1.500818580e-01   -4.070804417e-01
       20068750   -1.499901414e-01   -4.055215120e-01
       20072500   -1.499436796e-01   -4.039523602e-01
       20076250   -1.497641802e-01   -4.025053084e-01
       20080000   -1.495696008e-01   -4.007189274e-01
       20083750   -1.493306309e-01   -3.991533518e-01
       20087500   -1.491104215e-01   -3.975591660e-01
       20091250   -1.489140838e-01   -3.960627317e-01
       20095000   -1.488775611e-01   -3.945629597e-01
       20098750   -1.486554593e-01   -3.928678036e-01
       20102500   -1.485422552e-01   -3.915067911e-01
       20106250   -1.482317150e-01   -3.899282515e-01
       20110000   -1.479844898e-01   -3.884381354e-01
       20113750   -1.478929520e-01   -3.869358599e-01
       20117500   -1.476748586e-01   -3.854374588e-01
       20121250   -1.474012882e-01   -3.839499354e-01
       20125000   -1.472117752e-01   -3.823471069e-01
       20128750   -1.468305141e-01   -3.809346259e-01
       20132500   -1.467387229e-01   -3.795463145e-01
       20136250   -1.464101672e-01   -3.781468868e-01
       20140000   -1.461546421e-01   -3.765062094e-01
       20143750   -1.459274888e-01   -3.750951886e-01
       20147500   -1.456883252e-01   -3.735191226e-01
       20151250   -1.453440934e-01   -3.721574545e-01
       20155000   -1.451577544e-01   -3.706828356e-01
       20158750   -1.448079050e-01   -3.691511452e-01
       20162500   -1.446617097e-01   -3.677629828e-01
       20166250   -1.443627030e-01   -3.663414419e-01
       20170000   -1.441258192e-01   -3.648499846e-01
       20173750   -1.438228190e-01   -3.635991216e-01
       20177500   -1.433039010e-01   -3.620214760e-01
       20181250   -1.431792080e-01   -3.605487347e-01
       20185000   -1.428956389e-01   -3.592865467e-01
       20188750   -1.425616890e-01   -3.578155935e-01
       20192500   -1.422471851e-01   -3.564437330e-01
       20196250   -1.417679191e-01   -3.551406562e-01
       20200000   -1.415288150e-01   -3.536128402e-01
       20203750   -1.412378848e-01   -3.522792161e-01
       20207500   -1.409134120e-01   -3.508452773e-01
       20211250   -1.405470371e-01   -3.494251668e-01
       20215000   -1.401897967e-01   -3.482277691e-01
       20218750   -1.399828494e-01   -3.468340337e-01
       20222500   -1.396244317e-01   -3.456197083e-01
       20226250   -1.392713040e-01   -3.442601264e-01
       20230000   -1.389113069e-01   -3.427809477e-01
       20233750   -1.384670138e-01   -3.414624333e-01
       20237500   -1.381999552e-01   -3.402404487e-01
       20241250   -1.378351301e-01   -3.388866186e-01
       20245000   -1.373551637e-01   -3.377207816e-01
       20248750   -1.369825304e-01   -3.362564743e-01
       20252500   -1.367202997e-01   -3.349490762e-01
       20256250   -1.361300200e-01   -3.337880373e-01
       20260000   -1.359799057e-01   -3.324902356e-01
       20263750   -1.356362104e-01   -3.312481940e-01
       20267500   -1.351072490e-01   -3.300479352e-01
       20271250   -1.346439123e-01   -3.287377656e-01
       20275000   -1.344842315e-01   -3.275459707e-01
       20278750   -1.339206100e-01   -3.262954056e-01
       20282500   -1.336606294e-01   -3.250115812e-01
       20286250   -1.334406435e-01   -3.238230050e-01
       20290000   -1.327866614e-01   -3.226389289e-01
       20293750   -1.324684024e-01   -3.214558661e-01
       20297500   -1.321477294e-01   -3.202497065e-01
       20301250   -1.317039281e-01   -3.189931214e-01
       20305000   -1.313208193e-01   -3.179315031e-01
       20308750   -1.310030371e-01   -3.167518079e-01
       20312500   -1.306523830e-01   -3.155166507e-01
       20316250   -1.302477419e-01   -3.144718707e-01
       20320000   -1.299450397e-01   -3.131725788e-01
       20323750   -1.293102801e-01   -3.120052516e-01
       20327500   -1.289712340e-01   -3.110367358e-01
       20331250   -1.285819262e-01   -3.098152578e-01
       20335000   -1.283121407e-01   -3.086262941e-01
       20338750   -1.278281212e-01   -3.075511754e-01
       20342500   -1.274782270e-01   -3.063628078e-01
       20346250   -1.271407306e-01   -3.051855266e-01
       20350000   -1.269923300e-01   -3.043904305e-01
       20353750   -1.263366491e-01   -3.029167950e-01
       20357500   -1.259915084e-01   -3.020169139e-01
       20361250   -1.254741848e-01   -3.008871675e-01
       20365000   -1.253264993e-01   -2.998425364e-01
       20368750   -1.249546856e-01   -2.988035977e-01
