! NanoVNA-App by OneOfEleven et al v1.1.209 (+OD18) 
! Date: 2025-07-14 21:04:26
! Start: 19MHz Stop: 22MHz Points: 801
! S-Parameter data: F S11 S21 S12 S22
# Hz S RI R 50
!     Frequency           S11_Real           S11_Imag           S21_Real           S21_Imag           S12_Real           S12_Imag           S22_Real           S22_Imag
       19000000    1.116543859e-01   -7.748069167e-01   -3.465342888e-05    1.724749382e-05    0.000000000e+00    0.000000000e+00    0.000000000e+00    0.000000000e+00
       19003750    1.103749052e-01   -7.745741010e-01    5.311929726e-06    6.309120363e-05    0.000000000e+00    0.000000000e+00    0.000000000e+00    0.000000000e+00
       19007500    1.088656858e-01   -7.738112211e-01    5.171361408e-05    3.567487511e-05    0.000000000e+00    0.000000000e+00    0.000000000e+00    0.000000000e+00
       19011250    1.075724587e-01   -7.733980417e-01    8.295346197e-05    3.072163236e-05    0.000000000e+00    0.000000000e+00    0.000000000e+00    0.000000000e+00
       19015000    1.060013026e-01   -7.729086280e-01    1.575956776e-05   -3.302135883e-05    0.000000000e+00    0.000000000e+00    0.000000000e+00    0.000000000e+00
       19018750    1.045969874e-01   -7.723381519e-01    4.398155943e-05    2.823665818e-05    0.000000000e+00    0.000000000e+00    0.000000000e+00    0.000000000e+00
       19022500    1.031448171e-01   -7.719219327e-01    6.437936827e-05    6.947573274e-05    0.000000000e+00    0.000000000e+00    0.000000000e+00    0.000000000e+00
       19026250    1.017939448e-01   -7.714549303e-01    2.930180563e-05    7.394221757e-05    0.000000000e+00    0.000000000e+00    0.000000000e+00    0.000000000e+00
       19030000    1.002602056e-01   -7.707474828e-01    5.175499609e-05    5.275380681e-05    0.000000000e+00    0.000000000e+00    0.000000000e+00    0.000000000e+00
       19033750    9.892507643e-02   -7.701894641e-01    5.382376003e-06    6.225670222e-05    0.000000000e+00    0.000000000e+00    0.000000000e+00    0.000000000e+00
       19037500    9.742289037e-02   -7.696515322e-01    1.679798333e-05    9.443250747e-06    0.000000000e+00    0.000000000e+00    0.000000000e+00    0.000000000e+00
       19041250    9.611022472e-02   -7.690753937e-01   -1.496393725e-05    5.991437502e-05    0.000000000e+00    0.000000000e+00    0.000000000e+00    0.000000000e+00
       19045000    9.465760738e-02   -7.685000896e-01    8.598208296e-06    5.724816674e-06    0.000000000e+00    0.000000000e+00    0.000000000e+00    0.000000000e+00
       19048750    9.338895977e-02   -7.679603100e-01   -5.203982710e-06   -3.598861440e-05    0.000000000e+00    0.000000000e+00    0.000000000e+00    0.000000000e+00
       19052500    9.185441583e-02   -7.672771215e-01    5.981425420e-05    2.940437480e-05    0.000000000e+00    0.000000000e+00    0.000000000e+00    0.000000000e+00
       19056250    9.053306282e-02   -7.667419910e-01    1.737272100e-06    6.352473429e-05    0.000000000e+00    0.000000000e+00    0.000000000e+00    0.000000000e+00
       19060000    8.913359046e-02   -7.661958933e-01   -2.022464105e-05    8.191962843e-05    0.000000000e+00    0.000000000e+00    0.000000000e+00    0.000000000e+00
       19063750    8.761219680e-02   -7.654292583e-01    3.293459667e-05    5.125971802e-05    0.000000000e+00    0.000000000e+00    0.000000000e+00    0.000000000e+00
       19067500    8.630584180e-02   -7.648430467e-01   -2.807612691e-05    4.563469702e-05    0.000000000e+00    0.000000000e+00    0.000000000e+00    0.000000000e+00
       19071250    8.495218307e-02   -7.642014623e-01    9.666981896e-06    7.665019803e-05    0.000000000e+00    0.000000000e+00    0.000000000e+00    0.000000000e+00
       19075000    8.347927779e-02   -7.635744214e-01    1.231975148e-05    7.437138993e-05    0.000000000e+00    0.000000000e+00    0.000000000e+00    0.000000000e+00
       19078750    8.221349120e-02   -7.629187703e-01    3.888192805e-05    7.670756895e-05    0.000000000e+00    0.000000000e+00    0.000000000e+00    0.000000000e+00
       19082500    8.089805394e-02   -7.622724771e-01    2.638386286e-05    7.003104110e-05    0.000000000e+00    0.000000000e+00    0.000000000e+00    0.000000000e+00
       19086250    7.937230170e-02   -7.615467906e-01   -2.537940418e-05    2.385392690e-05    0.000000000e+00    0.000000000e+00    0.000000000e+00    0.000000000e+00
       19090000    7.814361155e-02   -7.607874274e-01   -2.595993283e-05    1.416819941e-05    0.000000000e+00    0.000000000e+00    0.000000000e+00    0.000000000e+00
       19093750    7.663074881e-02   -7.603265643e-01    6.766777369e-05    5.779768981e-05    0.000000000e+00    0.000000000e+00    0.000000000e+00    0.000000000e+00
       19097500    7.544494420e-02   -7.595083714e-01    2.567329830e-05    8.267661178e-05    0.000000000e+00    0.000000000e+00    0.000000000e+00    0.000000000e+00
       19101250    7.400763035e-02   -7.587320209e-01    4.607458322e-05    3.575893425e-05    0.000000000e+00    0.000000000e+00    0.000000000e+00    0.000000000e+00
       19105000    7.257603854e-02   -7.581451535e-01   -1.272165605e-06    7.182099944e-05    0.000000000e+00    0.000000000e+00    0.000000000e+00    0.000000000e+00
       19108750    7.144162804e-02   -7.573861480e-01    4.361458195e-05    2.404824045e-05    0.000000000e+00    0.000000000e+00    0.000000000e+00    0.000000000e+00
       19112500    6.984683126e-02   -7.565855980e-01   -2.689226676e-05    3.515375738e-06    0.000000000e+00    0.000000000e+00    0.000000000e+00    0.000000000e+00
       19116250    6.854583323e-02   -7.559363842e-01    2.770564060e-05    2.428681364e-05    0.000000000e+00    0.000000000e+00    0.000000000e+00    0.000000000e+00
       19120000    6.747698784e-02   -7.553426623e-01    2.664371095e-05    4.115919000e-05    0.000000000e+00    0.000000000e+00    0.000000000e+00    0.000000000e+00
       19123750    6.594841182e-02   -7.545787096e-01    2.057799611e-05    4.106334382e-05    0.000000000e+00    0.000000000e+00    0.000000000e+00    0.000000000e+00
       19127500    6.475865841e-02   -7.539397478e-01    4.045361857e-05    6.465181650e-05    0.000000000e+00    0.000000000e+00    0.000000000e+00    0.000000000e+00
       19131250    6.342923641e-02   -7.530468106e-01    4.807982987e-05    7.465521048e-05    0.000000000e+00    0.000000000e+00    0.000000000e+00    0.000000000e+00
       19135000    6.206527725e-02   -7.523975372e-01    5.310575943e-05    6.395731907e-05    0.000000000e+00    0.000000000e+00    0.000000000e+00    0.000000000e+00
       19138750    6.089250371e-02   -7.517212033e-01    3.911771637e-05    4.944824468e-05    0.000000000e+00    0.000000000e+00    0.000000000e+00    0.000000000e+00
       19142500    5.947340652e-02   -7.509104609e-01    4.449381231e-05    1.634953333e-05    0.000000000e+00    0.000000000e+00    0.000000000e+00    0.000000000e+00
       19146250    5.823574215e-02   -7.501940727e-01   -6.399030553e-06    7.015088340e-05    0.000000000e+00    0.000000000e+00    0.000000000e+00    0.000000000e+00
       19150000    5.698223040e-02   -7.495768666e-01   -6.968659250e-07    3.557782838e-05    0.000000000e+00    0.000000000e+00    0.000000000e+00    0.000000000e+00
       19153750    5.564625189e-02   -7.487334609e-01   -1.002153749e-05    5.717970998e-05    0.000000000e+00    0.000000000e+00    0.000000000e+00    0.000000000e+00
       19157500    5.435952917e-02   -7.479094863e-01    2.488667087e-05    7.210276817e-05    0.000000000e+00    0.000000000e+00    0.000000000e+00    0.000000000e+00
       19161250    5.315450951e-02   -7.472848296e-01    6.156310974e-06    8.131244977e-05    0.000000000e+00    0.000000000e+00    0.000000000e+00    0.000000000e+00
       19165000    5.187589675e-02   -7.464969158e-01    3.121965710e-05    4.509779683e-05    0.000000000e+00    0.000000000e+00    0.000000000e+00    0.000000000e+00
       19168750    5.042496696e-02   -7.456946373e-01    2.305971975e-05    1.663828880e-05    0.000000000e+00    0.000000000e+00    0.000000000e+00    0.000000000e+00
       19172500    4.931444302e-02   -7.449830770e-01    2.643886182e-05    9.206675895e-05    0.000000000e+00    0.000000000e+00    0.000000000e+00    0.000000000e+00
       19176250    4.797200486e-02   -7.443659306e-01    1.145419901e-05    4.146700303e-05    0.000000000e+00    0.000000000e+00    0.000000000e+00    0.000000000e+00
       19180000    4.687987268e-02   -7.434749603e-01    1.429563326e-05    3.444938557e-05    0.000000000e+00    0.000000000e+00    0.000000000e+00    0.000000000e+00
       19183750    4.556895420e-02   -7.427088618e-01    3.792837015e-05    4.156132854e-05    0.000000000e+00    0.000000000e+00    0.000000000e+00    0.000000000e+00
       19187500    4.415959865e-02   -7.420724034e-01    4.699329293e-05    4.686450484e-05    0.000000000e+00    0.000000000e+00    0.000000000e+00    0.000000000e+00
       19191250    4.294545203e-02   -7.412028909e-01    3.035912050e-05    3.987757373e-05    0.000000000e+00    0.000000000e+00    0.000000000e+00    0.000000000e+00
       19195000    4.178205505e-02   -7.404903769e-01   -6.912547974e-07    2.977290933e-05    0.000000000e+00    0.000000000e+00    0.000000000e+00    0.000000000e+00
       19198750    4.046887904e-02   -7.399069071e-01   -3.463754638e-06    4.849261677e-05    0.000000000e+00    0.000000000e+00    0.000000000e+00    0.000000000e+00
       19202500    3.915696591e-02   -7.388759851e-01    2.042465348e-05    4.487040860e-05    0.000000000e+00    0.000000000e+00    0.000000000e+00    0.000000000e+00
       19206250    3.792640939e-02   -7.382533550e-01    2.664619387e-05    9.590516129e-06    0.000000000e+00    0.000000000e+00    0.000000000e+00    0.000000000e+00
       19210000    3.648031875e-02   -7.375447750e-01    3.535931319e-05    5.214290286e-05    0.000000000e+00    0.000000000e+00    0.000000000e+00    0.000000000e+00
       19213750    3.541417792e-02   -7.366960049e-01   -1.218777197e-05    5.078087270e-05    0.000000000e+00    0.000000000e+00    0.000000000e+00    0.000000000e+00
       19217500    3.420644253e-02   -7.360482812e-01   -3.844916137e-05    3.047022437e-05    0.000000000e+00    0.000000000e+00    0.000000000e+00    0.000000000e+00
       19221250    3.281679004e-02   -7.352332473e-01    2.620081068e-05    6.641137588e-05    0.000000000e+00    0.000000000e+00    0.000000000e+00    0.000000000e+00
       19225000    3.148256242e-02   -7.344374657e-01   -1.247646469e-05    5.097695521e-06    0.000000000e+00    0.000000000e+00    0.000000000e+00    0.000000000e+00
       19228750    3.024663217e-02   -7.338059545e-01   -2.054098150e-05    6.500937161e-05    0.000000000e+00    0.000000000e+00    0.000000000e+00    0.000000000e+00
       19232500    2.890068479e-02   -7.329934239e-01    1.639703805e-05    4.291833829e-05    0.000000000e+00    0.000000000e+00    0.000000000e+00    0.000000000e+00
       19236250    2.762035094e-02   -7.321693897e-01    1.152975346e-05    4.229747719e-05    0.000000000e+00    0.000000000e+00    0.000000000e+00    0.000000000e+00
       19240000    2.649118751e-02   -7.315768600e-01    2.746780046e-05    4.718076889e-05    0.000000000e+00    0.000000000e+00    0.000000000e+00    0.000000000e+00
       19243750    2.500287443e-02   -7.306262255e-01   -4.235173765e-05    5.523720029e-05    0.000000000e+00    0.000000000e+00    0.000000000e+00    0.000000000e+00
       19247500    2.377319150e-02   -7.298492789e-01    1.459241503e-05    6.423250625e-07    0.000000000e+00    0.000000000e+00    0.000000000e+00    0.000000000e+00
       19251250    2.248005942e-02   -7.291707397e-01    4.480828284e-05    4.887371324e-05    0.000000000e+00    0.000000000e+00    0.000000000e+00    0.000000000e+00
       19255000    2.098007128e-02   -7.282729745e-01   -2.004606540e-05    2.112858056e-05    0.000000000e+00    0.000000000e+00    0.000000000e+00    0.000000000e+00
       19258750    1.986253262e-02   -7.274556160e-01   -3.529706373e-05    3.429881326e-05    0.000000000e+00    0.000000000e+00    0.000000000e+00    0.000000000e+00
       19262500    1.855792105e-02   -7.267162204e-01    3.456430204e-05   -3.643450327e-05    0.000000000e+00    0.000000000e+00    0.000000000e+00    0.000000000e+00
       19266250    1.716401801e-02   -7.259887457e-01   -4.937646736e-05    2.010422122e-06    0.000000000e+00    0.000000000e+00    0.000000000e+00    0.000000000e+00
       19270000    1.594209112e-02   -7.249984145e-01    2.953006515e-05    4.633456410e-05    0.000000000e+00    0.000000000e+00    0.000000000e+00    0.000000000e+00
       19273750    1.449164562e-02   -7.241692543e-01    3.483564069e-05   -4.447043466e-06    0.000000000e+00    0.000000000e+00    0.000000000e+00    0.000000000e+00
       19277500    1.315653417e-02   -7.235941887e-01    6.692280294e-07    1.319283092e-05    0.000000000e+00    0.000000000e+00    0.000000000e+00    0.000000000e+00
       19281250    1.187973469e-02   -7.225033641e-01    4.385744978e-05    4.121665188e-05    0.000000000e+00    0.000000000e+00    0.000000000e+00    0.000000000e+00
       19285000    1.057536434e-02   -7.216229439e-01   -2.479722389e-05   -1.588131818e-05    0.000000000e+00    0.000000000e+00    0.000000000e+00    0.000000000e+00
       19288750    9.111946449e-03   -7.210243344e-01    8.551945939e-05    7.146061398e-05    0.000000000e+00    0.000000000e+00    0.000000000e+00    0.000000000e+00
       19292500    7.987591438e-03   -7.199503779e-01    4.080119470e-05    4.531034574e-05    0.000000000e+00    0.000000000e+00    0.000000000e+00    0.000000000e+00
       19296250    6.673958153e-03   -7.190427184e-01    3.698672299e-05    4.726378756e-05    0.000000000e+00    0.000000000e+00    0.000000000e+00    0.000000000e+00
       19300000    5.120717455e-03   -7.184410095e-01   -1.508382229e-05    6.283189578e-05    0.000000000e+00    0.000000000e+00    0.000000000e+00    0.000000000e+00
       19303750    3.958337475e-03   -7.174876332e-01   -1.175124271e-05    5.918739407e-05    0.000000000e+00    0.000000000e+00    0.000000000e+00    0.000000000e+00
       19307500    2.486688085e-03   -7.164610624e-01   -9.857501936e-06    5.658266218e-06    0.000000000e+00    0.000000000e+00    0.000000000e+00    0.000000000e+00
       19311250    1.161132590e-03   -7.156607509e-01    5.159941429e-05    3.524722706e-05    0.000000000e+00    0.000000000e+00    0.000000000e+00    0.000000000e+00
       19315000   -1.622853597e-04   -7.147021294e-01   -9.042018064e-06    7.283828745e-05    0.000000000e+00    0.000000000e+00    0.000000000e+00    0.000000000e+00
       19318750   -1.373408362e-03   -7.137594223e-01    1.712397716e-05    1.065213291e-05    0.000000000e+00    0.000000000e+00    0.000000000e+00    0.000000000e+00
       19322500   -2.941598184e-03   -7.129621506e-01    4.304003596e-05    1.499305836e-05    0.000000000e+00    0.000000000e+00    0.000000000e+00    0.000000000e+00
       19326250   -4.177869763e-03   -7.120426297e-01    2.808697354e-05    6.147968088e-05    0.000000000e+00    0.000000000e+00    0.000000000e+00    0.000000000e+00
       19330000   -5.538126454e-03   -7.110841274e-01    2.392784700e-05    3.407448094e-05    0.000000000e+00    0.000000000e+00    0.000000000e+00    0.000000000e+00
       19333750   -6.852829829e-03   -7.101942897e-01    3.067764192e-05    4.805567733e-05    0.000000000e+00    0.000000000e+00    0.000000000e+00    0.000000000e+00
       19337500   -8.267186582e-03   -7.091639638e-01    2.376580596e-05    4.592308687e-05    0.000000000e+00    0.000000000e+00    0.000000000e+00    0.000000000e+00
       19341250   -9.487172589e-03   -7.082328200e-01   -1.975834857e-05    7.896170428e-05    0.000000000e+00    0.000000000e+00    0.000000000e+00    0.000000000e+00
       19345000   -1.096747164e-02   -7.072331905e-01    6.314204802e-05   -3.903602192e-06    0.000000000e+00    0.000000000e+00    0.000000000e+00    0.000000000e+00
       19348750   -1.224438660e-02   -7.062603235e-01    4.092687232e-05    4.286694093e-05    0.000000000e+00    0.000000000e+00    0.000000000e+00    0.000000000e+00
       19352500   -1.358070504e-02   -7.052065730e-01    4.538296344e-05   -6.082472623e-07    0.000000000e+00    0.000000000e+00    0.000000000e+00    0.000000000e+00
       19356250   -1.507090032e-02   -7.043882608e-01   -7.548528913e-08    2.253455705e-06    0.000000000e+00    0.000000000e+00    0.000000000e+00    0.000000000e+00
       19360000   -1.646173187e-02   -7.032464743e-01   -4.782993710e-05    5.905309081e-05    0.000000000e+00    0.000000000e+00    0.000000000e+00    0.000000000e+00
       19363750   -1.752949134e-02   -7.022964358e-01    2.004501039e-05    6.302548718e-05    0.000000000e+00    0.000000000e+00    0.000000000e+00    0.000000000e+00
       19367500   -1.906228811e-02   -7.012581229e-01    2.632834548e-05   -3.598639069e-06    0.000000000e+00    0.000000000e+00    0.000000000e+00    0.000000000e+00
       19371250   -2.034776099e-02   -7.003154755e-01    2.076967121e-06    3.830734931e-05    0.000000000e+00    0.000000000e+00    0.000000000e+00    0.000000000e+00
       19375000   -2.183032036e-02   -6.991707683e-01   -2.284838592e-05    6.087941529e-07    0.000000000e+00    0.000000000e+00    0.000000000e+00    0.000000000e+00
       19378750   -2.290070802e-02   -6.980438828e-01   -1.264340699e-05    3.474928235e-05    0.000000000e+00    0.000000000e+00    0.000000000e+00    0.000000000e+00
       19382500   -2.446339279e-02   -6.970999837e-01   -2.393641580e-06    4.665956294e-05    0.000000000e+00    0.000000000e+00    0.000000000e+00    0.000000000e+00
       19386250   -2.586002648e-02   -6.958914995e-01    6.768627645e-05   -3.097238732e-05    0.000000000e+00    0.000000000e+00    0.000000000e+00    0.000000000e+00
       19390000   -2.706621028e-02   -6.949017048e-01   -1.769213122e-05    3.043025390e-05    0.000000000e+00    0.000000000e+00    0.000000000e+00    0.000000000e+00
       19393750   -2.834218554e-02   -6.938467026e-01    4.257337059e-05    3.000706783e-05    0.000000000e+00    0.000000000e+00    0.000000000e+00    0.000000000e+00
       19397500   -2.983853035e-02   -6.926828623e-01    4.868002725e-05    6.238593051e-05    0.000000000e+00    0.000000000e+00    0.000000000e+00    0.000000000e+00
       19401250   -3.087781370e-02   -6.915412545e-01    4.026384704e-05    2.073771793e-05    0.000000000e+00    0.000000000e+00    0.000000000e+00    0.000000000e+00
       19405000   -3.240269423e-02   -6.904455423e-01   -2.135903514e-06   -2.513147592e-06    0.000000000e+00    0.000000000e+00    0.000000000e+00    0.000000000e+00
       19408750   -3.366399929e-02   -6.892629862e-01   -4.078947677e-05    7.259962149e-05    0.000000000e+00    0.000000000e+00    0.000000000e+00    0.000000000e+00
       19412500   -3.494417295e-02   -6.880733371e-01   -3.341383263e-06   -1.513261032e-05    0.000000000e+00    0.000000000e+00    0.000000000e+00    0.000000000e+00
       19416250   -3.634900227e-02   -6.870722771e-01    1.404202794e-05    7.491898577e-05    0.000000000e+00    0.000000000e+00    0.000000000e+00    0.000000000e+00
       19420000   -3.765209019e-02   -6.858685017e-01    3.658597052e-05    1.827853339e-05    0.000000000e+00    0.000000000e+00    0.000000000e+00    0.000000000e+00
       19423750   -3.901722655e-02   -6.846666336e-01    4.508886559e-05    5.643973782e-05    0.000000000e+00    0.000000000e+00    0.000000000e+00    0.000000000e+00
       19427500   -4.032213986e-02   -6.836726069e-01    9.070237866e-06    2.785142897e-05    0.000000000e+00    0.000000000e+00    0.000000000e+00    0.000000000e+00
       19431250   -4.164677858e-02   -6.824173331e-01    5.471957775e-05    6.408528861e-05    0.000000000e+00    0.000000000e+00    0.000000000e+00    0.000000000e+00
       19435000   -4.287589714e-02   -6.812506914e-01    1.413041628e-05    9.872070223e-05    0.000000000e+00    0.000000000e+00    0.000000000e+00    0.000000000e+00
