! NanoVNA-App by OneOfEleven et al v1.1.209 (+OD18) 
! Date: 2025-07-14 21:07:35
! Start: 27MHz Stop: 30MHz Points: 801
! S-Parameter data: F S11 S21 S12 S22
# Hz S RI R 50
!     Frequency           S11_Real           S11_Imag           S21_Real           S21_Imag           S12_Real           S12_Imag           S22_Real           S22_Imag
       27000000    5.728770494e-01   -7.794562578e-01    8.967833310e-06    3.212198135e-05    0.000000000e+00    0.000000000e+00    0.000000000e+00    0.000000000e+00
       27003750    5.713934898e-01   -7.808225155e-01    9.605513696e-06    5.943431461e-05    0.000000000e+00    0.000000000e+00    0.000000000e+00    0.000000000e+00
       27007500    5.692635775e-01   -7.824047804e-01   -2.114651033e-05    4.500505383e-05    0.000000000e+00    0.000000000e+00    0.000000000e+00    0.000000000e+00
       27011250    5.674178600e-01   -7.835805416e-01   -1.683993105e-05    2.296456660e-05    0.000000000e+00    0.000000000e+00    0.000000000e+00    0.000000000e+00
       27015000    5.656074882e-01   -7.847969532e-01   -6.977916200e-05    8.215881098e-05    0.000000000e+00    0.000000000e+00    0.000000000e+00    0.000000000e+00
       27018750    5.636053085e-01   -7.864072323e-01   -7.518445727e-06    3.611853026e-05    0.000000000e+00    0.000000000e+00    0.000000000e+00    0.000000000e+00
       27022500    5.616964102e-01   -7.874946594e-01    2.129656878e-06    6.196570757e-05    0.000000000e+00    0.000000000e+00    0.000000000e+00    0.000000000e+00
       27026250    5.595400929e-01   -7.886651158e-01   -7.572365575e-06    1.886969767e-05    0.000000000e+00    0.000000000e+00    0.000000000e+00    0.000000000e+00
       27030000    5.576445460e-01   -7.901194692e-01   -3.261347592e-05    3.938040390e-05    0.000000000e+00    0.000000000e+00    0.000000000e+00    0.000000000e+00
       27033750    5.556299686e-01   -7.911397219e-01   -2.435948772e-05    4.102770981e-05    0.000000000e+00    0.000000000e+00    0.000000000e+00    0.000000000e+00
       27037500    5.538724065e-01   -7.924094200e-01   -2.445919745e-05    5.680878166e-05    0.000000000e+00    0.000000000e+00    0.000000000e+00    0.000000000e+00
       27041250    5.520526767e-01   -7.936154008e-01    4.647577498e-06    4.797022029e-06    0.000000000e+00    0.000000000e+00    0.000000000e+00    0.000000000e+00
       27045000    5.503038168e-01   -7.946773171e-01   -5.958712427e-05    9.031493846e-07    0.000000000e+00    0.000000000e+00    0.000000000e+00    0.000000000e+00
       27048750    5.483868122e-01   -7.960059643e-01   -3.156638559e-05    4.842237468e-05    0.000000000e+00    0.000000000e+00    0.000000000e+00    0.000000000e+00
       27052500    5.465391874e-01   -7.972994447e-01   -6.501587904e-06    7.266319153e-05    0.000000000e+00    0.000000000e+00    0.000000000e+00    0.000000000e+00
       27056250    5.447105169e-01   -7.986816168e-01   -2.186358688e-05    2.967229375e-05    0.000000000e+00    0.000000000e+00    0.000000000e+00    0.000000000e+00
       27060000    5.428348780e-01   -7.996893525e-01   -1.436199182e-05    5.136284926e-06    0.000000000e+00    0.000000000e+00    0.000000000e+00    0.000000000e+00
       27063750    5.409709215e-01   -8.007405996e-01    2.316514292e-05    1.604509089e-05    0.000000000e+00    0.000000000e+00    0.000000000e+00    0.000000000e+00
       27067500    5.393140912e-01   -8.022371531e-01    1.254785911e-05    7.053442823e-05    0.000000000e+00    0.000000000e+00    0.000000000e+00    0.000000000e+00
       27071250    5.375407934e-01   -8.033753633e-01    3.661030496e-05    4.219235052e-05    0.000000000e+00    0.000000000e+00    0.000000000e+00    0.000000000e+00
       27075000    5.357791185e-01   -8.046992421e-01   -2.291744931e-05    2.669106107e-05    0.000000000e+00    0.000000000e+00    0.000000000e+00    0.000000000e+00
       27078750    5.338075757e-01   -8.059408665e-01   -5.813683674e-05    6.341880362e-05    0.000000000e+00    0.000000000e+00    0.000000000e+00    0.000000000e+00
       27082500    5.319149494e-01   -8.070363402e-01   -5.498713290e-05    6.155042502e-05    0.000000000e+00    0.000000000e+00    0.000000000e+00    0.000000000e+00
       27086250    5.301734209e-01   -8.080317378e-01    2.687358938e-05    9.051102825e-05    0.000000000e+00    0.000000000e+00    0.000000000e+00    0.000000000e+00
       27090000    5.283255577e-01   -8.093454242e-01    2.328580376e-05    1.408848220e-06    0.000000000e+00    0.000000000e+00    0.000000000e+00    0.000000000e+00
       27093750    5.264038444e-01   -8.104870915e-01   -1.033876515e-06    9.002219304e-05    0.000000000e+00    0.000000000e+00    0.000000000e+00    0.000000000e+00
       27097500    5.245487690e-01   -8.118577600e-01    1.584123856e-05    9.202588990e-05    0.000000000e+00    0.000000000e+00    0.000000000e+00    0.000000000e+00
       27101250    5.226019025e-01   -8.130939603e-01    3.427453339e-05    6.744044367e-05    0.000000000e+00    0.000000000e+00    0.000000000e+00    0.000000000e+00
       27105000    5.205220580e-01   -8.141824603e-01   -2.178185423e-05    6.680767910e-06    0.000000000e+00    0.000000000e+00    0.000000000e+00    0.000000000e+00
       27108750    5.188250542e-01   -8.153531551e-01   -2.523546027e-05    2.528507684e-05    0.000000000e+00    0.000000000e+00    0.000000000e+00    0.000000000e+00
       27112500    5.169032216e-01   -8.164979219e-01   -5.993717423e-06    5.895360300e-05    0.000000000e+00    0.000000000e+00    0.000000000e+00    0.000000000e+00
       27116250    5.150762200e-01   -8.176979423e-01   -2.163849422e-05    6.579735054e-05    0.000000000e+00    0.000000000e+00    0.000000000e+00    0.000000000e+00
       27120000    5.133305192e-01   -8.187701106e-01    1.808025991e-05    8.338160114e-05    0.000000000e+00    0.000000000e+00    0.000000000e+00    0.000000000e+00
       27123750    5.112254620e-01   -8.199017048e-01   -6.588731139e-06    8.418872312e-05    0.000000000e+00    0.000000000e+00    0.000000000e+00    0.000000000e+00
       27127500    5.091915131e-01   -8.210126162e-01   -2.565369687e-05    8.767005784e-05    0.000000000e+00    0.000000000e+00    0.000000000e+00    0.000000000e+00
       27131250    5.074666739e-01   -8.223925829e-01   -1.428199084e-05    4.024374721e-05    0.000000000e+00    0.000000000e+00    0.000000000e+00    0.000000000e+00
       27135000    5.056608915e-01   -8.235579729e-01   -5.704342038e-05    6.858809502e-05    0.000000000e+00    0.000000000e+00    0.000000000e+00    0.000000000e+00
       27138750    5.037850738e-01   -8.244189024e-01   -1.513968800e-05    7.034125883e-05    0.000000000e+00    0.000000000e+00    0.000000000e+00    0.000000000e+00
       27142500    5.017735362e-01   -8.258536458e-01   -3.377955363e-05    3.479126462e-07    0.000000000e+00    0.000000000e+00    0.000000000e+00    0.000000000e+00
       27146250    4.999835491e-01   -8.269701600e-01   -2.503836913e-05    5.852638060e-05    0.000000000e+00    0.000000000e+00    0.000000000e+00    0.000000000e+00
       27150000    4.976996481e-01   -8.279303908e-01    3.251965381e-07    6.177290925e-05    0.000000000e+00    0.000000000e+00    0.000000000e+00    0.000000000e+00
       27153750    4.956767559e-01   -8.290686607e-01   -2.928704248e-07    6.362287968e-05    0.000000000e+00    0.000000000e+00    0.000000000e+00    0.000000000e+00
       27157500    4.937511683e-01   -8.304271698e-01    1.198558675e-05    4.441876081e-05    0.000000000e+00    0.000000000e+00    0.000000000e+00    0.000000000e+00
       27161250    4.916130006e-01   -8.315046430e-01   -2.119738201e-05    5.941766358e-05    0.000000000e+00    0.000000000e+00    0.000000000e+00    0.000000000e+00
       27165000    4.896764159e-01   -8.326605558e-01   -1.957695531e-05    8.213066758e-05    0.000000000e+00    0.000000000e+00    0.000000000e+00    0.000000000e+00
       27168750    4.876065254e-01   -8.334918618e-01   -3.255547199e-05    5.509366383e-05    0.000000000e+00    0.000000000e+00    0.000000000e+00    0.000000000e+00
       27172500    4.857486784e-01   -8.349910975e-01   -3.143941285e-05    5.303074795e-05    0.000000000e+00    0.000000000e+00    0.000000000e+00    0.000000000e+00
       27176250    4.836837947e-01   -8.360416293e-01   -4.959398575e-05    6.274937186e-05    0.000000000e+00    0.000000000e+00    0.000000000e+00    0.000000000e+00
       27180000    4.815904498e-01   -8.368867040e-01    2.317310282e-05    7.764664770e-05    0.000000000e+00    0.000000000e+00    0.000000000e+00    0.000000000e+00
       27183750    4.795882106e-01   -8.382490277e-01    2.770688661e-05    5.291421621e-05    0.000000000e+00    0.000000000e+00    0.000000000e+00    0.000000000e+00
       27187500    4.774179459e-01   -8.392296433e-01   -3.343176286e-05    3.743178968e-05    0.000000000e+00    0.000000000e+00    0.000000000e+00    0.000000000e+00
       27191250    4.754326642e-01   -8.403002620e-01   -1.023621280e-05    6.027666313e-05    0.000000000e+00    0.000000000e+00    0.000000000e+00    0.000000000e+00
       27195000    4.731697738e-01   -8.414742351e-01   -1.614411667e-05    1.996437459e-05    0.000000000e+00    0.000000000e+00    0.000000000e+00    0.000000000e+00
       27198750    4.710496068e-01   -8.425437212e-01   -6.676085468e-05    3.055982597e-05    0.000000000e+00    0.000000000e+00    0.000000000e+00    0.000000000e+00
       27202500    4.690603018e-01   -8.436621428e-01   -5.047387822e-05    1.885380334e-05    0.000000000e+00    0.000000000e+00    0.000000000e+00    0.000000000e+00
       27206250    4.668896198e-01   -8.445767760e-01    2.985066203e-06    6.854456296e-05    0.000000000e+00    0.000000000e+00    0.000000000e+00    0.000000000e+00
       27210000    4.645777941e-01   -8.458884954e-01    1.444607733e-05    1.869578045e-05    0.000000000e+00    0.000000000e+00    0.000000000e+00    0.000000000e+00
       27213750    4.626505375e-01   -8.470691442e-01   -3.414282401e-05   -7.011472462e-06    0.000000000e+00    0.000000000e+00    0.000000000e+00    0.000000000e+00
       27217500    4.603381157e-01   -8.479580879e-01   -3.472803655e-05    5.117644105e-05    0.000000000e+00    0.000000000e+00    0.000000000e+00    0.000000000e+00
       27221250    4.582701921e-01   -8.488347530e-01   -1.716072256e-05    5.580077777e-05    0.000000000e+00    0.000000000e+00    0.000000000e+00    0.000000000e+00
       27225000    4.563114047e-01   -8.500280976e-01    1.429699296e-06    4.832717605e-05    0.000000000e+00    0.000000000e+00    0.000000000e+00    0.000000000e+00
       27228750    4.537042379e-01   -8.510913849e-01    7.555999673e-06    5.293795039e-05    0.000000000e+00    0.000000000e+00    0.000000000e+00    0.000000000e+00
       27232500    4.517984092e-01   -8.521723151e-01   -2.281370689e-05    7.685775199e-05    0.000000000e+00    0.000000000e+00    0.000000000e+00    0.000000000e+00
       27236250    4.493134618e-01   -8.531251550e-01    4.067851478e-05    5.770225107e-05    0.000000000e+00    0.000000000e+00    0.000000000e+00    0.000000000e+00
       27240000    4.470309019e-01   -8.541809320e-01    2.036670850e-07    7.810295938e-05    0.000000000e+00    0.000000000e+00    0.000000000e+00    0.000000000e+00
       27243750    4.452772141e-01   -8.553463221e-01   -1.384176903e-05    5.919410978e-05    0.000000000e+00    0.000000000e+00    0.000000000e+00    0.000000000e+00
       27247500    4.429688454e-01   -8.561658263e-01   -2.231497456e-05    6.093996490e-05    0.000000000e+00    0.000000000e+00    0.000000000e+00    0.000000000e+00
       27251250    4.407078922e-01   -8.572601080e-01    1.440011511e-05    3.490652307e-05    0.000000000e+00    0.000000000e+00    0.000000000e+00    0.000000000e+00
       27255000    4.385759234e-01   -8.584482074e-01   -2.708342072e-05    3.492286487e-05    0.000000000e+00    0.000000000e+00    0.000000000e+00    0.000000000e+00
       27258750    4.361779690e-01   -8.593193293e-01    5.121863796e-05    5.928740211e-05    0.000000000e+00    0.000000000e+00    0.000000000e+00    0.000000000e+00
       27262500    4.336538315e-01   -8.605852127e-01    3.496502904e-05    4.774179979e-05    0.000000000e+00    0.000000000e+00    0.000000000e+00    0.000000000e+00
       27266250    4.314360023e-01   -8.615242243e-01    7.391577128e-06    2.420862620e-05    0.000000000e+00    0.000000000e+00    0.000000000e+00    0.000000000e+00
       27270000    4.293075800e-01   -8.625592589e-01   -3.203221058e-05    3.619278141e-05    0.000000000e+00    0.000000000e+00    0.000000000e+00    0.000000000e+00
       27273750    4.269548953e-01   -8.636983633e-01    5.183243502e-06    2.100125130e-05    0.000000000e+00    0.000000000e+00    0.000000000e+00    0.000000000e+00
       27277500    4.245581031e-01   -8.646278977e-01    6.951558589e-06    1.340348535e-05    0.000000000e+00    0.000000000e+00    0.000000000e+00    0.000000000e+00
       27281250    4.223991334e-01   -8.655381799e-01    7.174439361e-06   -2.576527550e-05    0.000000000e+00    0.000000000e+00    0.000000000e+00    0.000000000e+00
       27285000    4.199664593e-01   -8.665730953e-01   -6.580900845e-06    3.220278450e-05    0.000000000e+00    0.000000000e+00    0.000000000e+00    0.000000000e+00
       27288750    4.176316559e-01   -8.675448298e-01    2.120005774e-05    5.216365025e-05    0.000000000e+00    0.000000000e+00    0.000000000e+00    0.000000000e+00
       27292500    4.152515829e-01   -8.687025905e-01   -2.328989831e-05    7.593306509e-05    0.000000000e+00    0.000000000e+00    0.000000000e+00    0.000000000e+00
       27296250    4.128862619e-01   -8.693715334e-01   -2.208081969e-05    5.757675535e-05    0.000000000e+00    0.000000000e+00    0.000000000e+00    0.000000000e+00
       27300000    4.103118777e-01   -8.707351685e-01    2.181705167e-05    1.196516041e-05    0.000000000e+00    0.000000000e+00    0.000000000e+00    0.000000000e+00
       27303750    4.081775546e-01   -8.715176582e-01   -1.234689989e-05    5.588537169e-05    0.000000000e+00    0.000000000e+00    0.000000000e+00    0.000000000e+00
       27307500    4.056667089e-01   -8.724700212e-01    9.064797268e-06    4.369363523e-05    0.000000000e+00    0.000000000e+00    0.000000000e+00    0.000000000e+00
       27311250    4.033879638e-01   -8.735343218e-01   -1.696798608e-05    4.278408232e-05    0.000000000e+00    0.000000000e+00    0.000000000e+00    0.000000000e+00
       27315000    4.006866515e-01   -8.746082187e-01   -3.878529606e-05    5.130668433e-05    0.000000000e+00    0.000000000e+00    0.000000000e+00    0.000000000e+00
       27318750    3.985553682e-01   -8.754013777e-01   -9.785978818e-07    3.901662058e-05    0.000000000e+00    0.000000000e+00    0.000000000e+00    0.000000000e+00
       27322500    3.958038986e-01   -8.765556812e-01   -1.926249934e-05    3.515739809e-05    0.000000000e+00    0.000000000e+00    0.000000000e+00    0.000000000e+00
       27326250    3.935925663e-01   -8.774387836e-01   -3.919059236e-05    4.928295766e-06    0.000000000e+00    0.000000000e+00    0.000000000e+00    0.000000000e+00
       27330000    3.908645511e-01   -8.785459995e-01   -4.119439836e-05    6.042371388e-05    0.000000000e+00    0.000000000e+00    0.000000000e+00    0.000000000e+00
       27333750    3.885268271e-01   -8.792746663e-01   -2.733775545e-06    4.164965867e-05    0.000000000e+00    0.000000000e+00    0.000000000e+00    0.000000000e+00
       27337500    3.861471415e-01   -8.802291155e-01   -8.934563084e-06    3.983727220e-05    0.000000000e+00    0.000000000e+00    0.000000000e+00    0.000000000e+00
       27341250    3.833193183e-01   -8.813532591e-01    6.932780707e-06    5.205279740e-05    0.000000000e+00    0.000000000e+00    0.000000000e+00    0.000000000e+00
       27345000    3.808942139e-01   -8.822895885e-01   -4.654615259e-05    5.417694410e-05    0.000000000e+00    0.000000000e+00    0.000000000e+00    0.000000000e+00
       27348750    3.785107732e-01   -8.832756281e-01   -1.612162691e-06    7.214137440e-05    0.000000000e+00    0.000000000e+00    0.000000000e+00    0.000000000e+00
       27352500    3.761198223e-01   -8.843492270e-01    2.577615851e-05    5.018941738e-05    0.000000000e+00    0.000000000e+00    0.000000000e+00    0.000000000e+00
       27356250    3.733646870e-01   -8.850858212e-01    1.252546372e-05   -2.621661952e-05    0.000000000e+00    0.000000000e+00    0.000000000e+00    0.000000000e+00
       27360000    3.706250787e-01   -8.860487342e-01   -2.081818820e-06    6.046510680e-05    0.000000000e+00    0.000000000e+00    0.000000000e+00    0.000000000e+00
       27363750    3.680535853e-01   -8.871052265e-01   -2.583420610e-05    4.029212869e-05    0.000000000e+00    0.000000000e+00    0.000000000e+00    0.000000000e+00
       27367500    3.654231131e-01   -8.877310753e-01   -1.256979704e-05    7.242798893e-05    0.000000000e+00    0.000000000e+00    0.000000000e+00    0.000000000e+00
       27371250    3.630931377e-01   -8.889604807e-01   -4.845142030e-05    2.319886880e-05    0.000000000e+00    0.000000000e+00    0.000000000e+00    0.000000000e+00
       27375000    3.600220978e-01   -8.898279071e-01   -2.132916597e-05    7.049097621e-05    0.000000000e+00    0.000000000e+00    0.000000000e+00    0.000000000e+00
       27378750    3.576594293e-01   -8.906551003e-01   -1.839467586e-05    3.152345380e-05    0.000000000e+00    0.000000000e+00    0.000000000e+00    0.000000000e+00
       27382500    3.548662961e-01   -8.916401863e-01    2.204523980e-06    4.555987107e-05    0.000000000e+00    0.000000000e+00    0.000000000e+00    0.000000000e+00
       27386250    3.521860540e-01   -8.927215338e-01   -2.556277650e-05    7.620390534e-05    0.000000000e+00    0.000000000e+00    0.000000000e+00    0.000000000e+00
       27390000    3.492597044e-01   -8.934769630e-01    5.438873814e-06    7.489804557e-05    0.000000000e+00    0.000000000e+00    0.000000000e+00    0.000000000e+00
       27393750    3.467845321e-01   -8.944723010e-01    4.755207556e-06    1.920539216e-05    0.000000000e+00    0.000000000e+00    0.000000000e+00    0.000000000e+00
       27397500    3.439446390e-01   -8.953768015e-01   -1.314283963e-05    3.592189387e-05    0.000000000e+00    0.000000000e+00    0.000000000e+00    0.000000000e+00
       27401250    3.411640823e-01   -8.963835835e-01    1.354508640e-05   -2.653281626e-05    0.000000000e+00    0.000000000e+00    0.000000000e+00    0.000000000e+00
       27405000    3.384587169e-01   -8.974316716e-01    4.775375601e-06    2.031165423e-05    0.000000000e+00    0.000000000e+00    0.000000000e+00    0.000000000e+00
       27408750    3.355500400e-01   -8.981348276e-01    1.179298124e-05    6.893335376e-05    0.000000000e+00    0.000000000e+00    0.000000000e+00    0.000000000e+00
       27412500    3.326462507e-01   -8.991364837e-01    2.340795436e-05    2.425128514e-05    0.000000000e+00    0.000000000e+00    0.000000000e+00    0.000000000e+00
       27416250    3.296665549e-01   -9.001083374e-01   -2.360236795e-05    4.823334530e-05    0.000000000e+00    0.000000000e+00    0.000000000e+00    0.000000000e+00
       27420000    3.267570436e-01   -9.009761214e-01    1.913019150e-05    3.070849925e-05    0.000000000e+00    0.000000000e+00    0.000000000e+00    0.000000000e+00
       27423750    3.239327967e-01   -9.019581676e-01   -3.038115210e-06    6.823200692e-06    0.000000000e+00    0.000000000e+00    0.000000000e+00    0.000000000e+00
       27427500    3.208366632e-01   -9.029020667e-01   -3.578930045e-05    5.852730283e-06    0.000000000e+00    0.000000000e+00    0.000000000e+00    0.000000000e+00
       27431250    3.178654611e-01   -9.036808610e-01   -1.101274120e-05    1.088239242e-05    0.000000000e+00    0.000000000e+00    0.000000000e+00    0.000000000e+00
       27435000    3.148702383e-01   -9.046338201e-01   -3.809766713e-05    4.551677193e-05    0.000000000e+00    0.000000000e+00    0.000000000e+00    0.000000000e+00
