! NanoVNA-App by OneOfEleven et al v1.1.209 (+OD18) 
! Date: 2025-07-14 21:08:48
! Start: 28MHz Stop: 30MHz Points: 801
! S-Parameter data: F S11 S21 S12 S22
# Hz S RI R 50
!     Frequency           S11_Real           S11_Imag           S21_Real           S21_Imag           S12_Real           S12_Imag           S22_Real           S22_Imag
       28000000   -2.488365471e-01   -7.901596427e-01   -3.455534852e-06    1.226058157e-05    0.000000000e+00    0.000000000e+00    0.000000000e+00    0.000000000e+00
       28002500   -2.517410219e-01   -7.880499363e-01    3.393553197e-05    1.463851459e-05    0.000000000e+00    0.000000000e+00    0.000000000e+00    0.000000000e+00
       28005000   -2.545740902e-01   -7.861434817e-01    1.794526906e-05    4.865306983e-05    0.000000000e+00    0.000000000e+00    0.000000000e+00    0.000000000e+00
       28007500   -2.572886646e-01   -7.840740085e-01    1.776746103e-05    2.272540041e-05    0.000000000e+00    0.000000000e+00    0.000000000e+00    0.000000000e+00
       28010000   -2.603144944e-01   -7.820667624e-01    1.578496995e-05    1.782084837e-05    0.000000000e+00    0.000000000e+00    0.000000000e+00    0.000000000e+00
       28012500   -2.631027699e-01   -7.800104618e-01   -4.259679827e-06    4.278400593e-05    0.000000000e+00    0.000000000e+00    0.000000000e+00    0.000000000e+00
       28015000   -2.659416795e-01   -7.778427005e-01    6.156996096e-05    5.734548540e-05    0.000000000e+00    0.000000000e+00    0.000000000e+00    0.000000000e+00
       28017500   -2.689269781e-01   -7.757956982e-01    9.820210835e-06    5.576891272e-05    0.000000000e+00    0.000000000e+00    0.000000000e+00    0.000000000e+00
       28020000   -2.714521587e-01   -7.736629844e-01   -4.685442764e-05    1.552309186e-05    0.000000000e+00    0.000000000e+00    0.000000000e+00    0.000000000e+00
       28022500   -2.743404806e-01   -7.716035247e-01    8.085528680e-05    4.091682058e-05    0.000000000e+00    0.000000000e+00    0.000000000e+00    0.000000000e+00
       28025000   -2.770226598e-01   -7.695623040e-01   -1.813966992e-05    2.914062861e-05    0.000000000e+00    0.000000000e+00    0.000000000e+00    0.000000000e+00
       28027500   -2.795703411e-01   -7.674135566e-01   -4.925191206e-07    3.723633199e-05    0.000000000e+00    0.000000000e+00    0.000000000e+00    0.000000000e+00
       28030000   -2.820399702e-01   -7.653636932e-01    1.566598621e-05    6.377465616e-05    0.000000000e+00    0.000000000e+00    0.000000000e+00    0.000000000e+00
       28032500   -2.849483788e-01   -7.629129291e-01   -4.044195066e-06    5.790363139e-05    0.000000000e+00    0.000000000e+00    0.000000000e+00    0.000000000e+00
       28035000   -2.875774205e-01   -7.606229186e-01    7.594677299e-05    4.019696917e-06    0.000000000e+00    0.000000000e+00    0.000000000e+00    0.000000000e+00
       28037500   -2.904035449e-01   -7.584003806e-01    7.622788689e-05    3.767410453e-05    0.000000000e+00    0.000000000e+00    0.000000000e+00    0.000000000e+00
       28040000   -2.931263149e-01   -7.559885383e-01    4.099124999e-05    5.224466804e-05    0.000000000e+00    0.000000000e+00    0.000000000e+00    0.000000000e+00
       28042500   -2.960536480e-01   -7.535989285e-01    2.821001362e-05    4.746520426e-05    0.000000000e+00    0.000000000e+00    0.000000000e+00    0.000000000e+00
       28045000   -2.989848554e-01   -7.512485385e-01    5.162744856e-06   -2.721048804e-05    0.000000000e+00    0.000000000e+00    0.000000000e+00    0.000000000e+00
       28047500   -3.018091321e-01   -7.486550808e-01    3.124061914e-05    6.707412103e-05    0.000000000e+00    0.000000000e+00    0.000000000e+00    0.000000000e+00
       28050000   -3.044328392e-01   -7.461874485e-01    4.757153511e-05    2.783444688e-05    0.000000000e+00    0.000000000e+00    0.000000000e+00    0.000000000e+00
       28052500   -3.072494566e-01   -7.438322306e-01    2.290272460e-05    9.016805961e-06    0.000000000e+00    0.000000000e+00    0.000000000e+00    0.000000000e+00
       28055000   -3.103117943e-01   -7.414557338e-01    3.553646457e-05    4.333060133e-05    0.000000000e+00    0.000000000e+00    0.000000000e+00    0.000000000e+00
       28057500   -3.126559854e-01   -7.388561964e-01    2.323665467e-05    6.797667447e-05    0.000000000e+00    0.000000000e+00    0.000000000e+00    0.000000000e+00
       28060000   -3.157163262e-01   -7.361669540e-01   -5.038396466e-06    4.302459274e-05    0.000000000e+00    0.000000000e+00    0.000000000e+00    0.000000000e+00
       28062500   -3.182996809e-01   -7.336912155e-01    3.970075704e-05    3.481168460e-05    0.000000000e+00    0.000000000e+00    0.000000000e+00    0.000000000e+00
       28065000   -3.212908804e-01   -7.311870456e-01    3.987690798e-05    5.223285189e-05    0.000000000e+00    0.000000000e+00    0.000000000e+00    0.000000000e+00
       28067500   -3.240747154e-01   -7.285721302e-01    7.671918138e-05    3.021949487e-05    0.000000000e+00    0.000000000e+00    0.000000000e+00    0.000000000e+00
       28070000   -3.266947865e-01   -7.259775996e-01    1.364002947e-05    4.913236262e-05    0.000000000e+00    0.000000000e+00    0.000000000e+00    0.000000000e+00
       28072500   -3.295358717e-01   -7.232419252e-01    2.514550397e-05    1.790257556e-05    0.000000000e+00    0.000000000e+00    0.000000000e+00    0.000000000e+00
       28075000   -3.323362768e-01   -7.206042409e-01    3.401790309e-05    2.520313501e-05    0.000000000e+00    0.000000000e+00    0.000000000e+00    0.000000000e+00
       28077500   -3.350352347e-01   -7.178040743e-01    9.272763418e-05    3.154584920e-05    0.000000000e+00    0.000000000e+00    0.000000000e+00    0.000000000e+00
       28080000   -3.378778398e-01   -7.153145671e-01    2.682128070e-05    6.011544974e-05    0.000000000e+00    0.000000000e+00    0.000000000e+00    0.000000000e+00
       28082500   -3.406079113e-01   -7.126151323e-01    2.999726894e-05    6.427441986e-05    0.000000000e+00    0.000000000e+00    0.000000000e+00    0.000000000e+00
       28085000   -3.431982398e-01   -7.098075151e-01    1.914535096e-05    4.796377470e-05    0.000000000e+00    0.000000000e+00    0.000000000e+00    0.000000000e+00
       28087500   -3.459481895e-01   -7.069184780e-01    8.359282219e-06    3.216265759e-05    0.000000000e+00    0.000000000e+00    0.000000000e+00    0.000000000e+00
       28090000   -3.486364484e-01   -7.040740252e-01    3.216648111e-05   -9.976136425e-06    0.000000000e+00    0.000000000e+00    0.000000000e+00    0.000000000e+00
       28092500   -3.513298035e-01   -7.013959885e-01   -4.330064257e-06    7.367661601e-05    0.000000000e+00    0.000000000e+00    0.000000000e+00    0.000000000e+00
       28095000   -3.540600538e-01   -6.984750628e-01   -1.207883815e-05   -1.497924768e-05    0.000000000e+00    0.000000000e+00    0.000000000e+00    0.000000000e+00
       28097500   -3.568627834e-01   -6.956602931e-01    7.115046174e-05    4.196374721e-05    0.000000000e+00    0.000000000e+00    0.000000000e+00    0.000000000e+00
       28100000   -3.592962027e-01   -6.927314997e-01    2.790768849e-05    3.695821215e-05    0.000000000e+00    0.000000000e+00    0.000000000e+00    0.000000000e+00
       28102500   -3.620963991e-01   -6.898991466e-01    1.952941602e-05    3.101343827e-05    0.000000000e+00    0.000000000e+00    0.000000000e+00    0.000000000e+00
       28105000   -3.645928204e-01   -6.867291331e-01    8.302944480e-05    1.519143461e-05    0.000000000e+00    0.000000000e+00    0.000000000e+00    0.000000000e+00
       28107500   -3.673073947e-01   -6.840318441e-01    1.293366768e-05   -6.288088116e-06    0.000000000e+00    0.000000000e+00    0.000000000e+00    0.000000000e+00
       28110000   -3.698845506e-01   -6.808375120e-01    3.208904673e-05    3.110084799e-05    0.000000000e+00    0.000000000e+00    0.000000000e+00    0.000000000e+00
       28112500   -3.724962175e-01   -6.778281927e-01    6.838861009e-05    3.131403719e-05    0.000000000e+00    0.000000000e+00    0.000000000e+00    0.000000000e+00
       28115000   -3.748885095e-01   -6.748304367e-01    2.007266994e-05    5.187747956e-05    0.000000000e+00    0.000000000e+00    0.000000000e+00    0.000000000e+00
       28117500   -3.775614798e-01   -6.717454791e-01    6.316000508e-05   -4.866851305e-05    0.000000000e+00    0.000000000e+00    0.000000000e+00    0.000000000e+00
       28120000   -3.800892234e-01   -6.686947346e-01    6.570743153e-06    3.932977052e-05    0.000000000e+00    0.000000000e+00    0.000000000e+00    0.000000000e+00
       28122500   -3.826091290e-01   -6.656704545e-01   -1.506410263e-05    1.968433253e-06    0.000000000e+00    0.000000000e+00    0.000000000e+00    0.000000000e+00
       28125000   -3.853115141e-01   -6.625154018e-01    9.746466822e-05    4.661474304e-05    0.000000000e+00    0.000000000e+00    0.000000000e+00    0.000000000e+00
       28127500   -3.876529038e-01   -6.592171192e-01    5.134906678e-05    3.939249655e-05    0.000000000e+00    0.000000000e+00    0.000000000e+00    0.000000000e+00
       28130000   -3.902239799e-01   -6.560418010e-01    4.067899499e-05    4.847179662e-05    0.000000000e+00    0.000000000e+00    0.000000000e+00    0.000000000e+00
       28132500   -3.926242292e-01   -6.528510451e-01   -9.172706086e-06   -2.633058102e-05    0.000000000e+00    0.000000000e+00    0.000000000e+00    0.000000000e+00
       28135000   -3.950558007e-01   -6.496319175e-01    8.367367263e-05    6.304712588e-05    0.000000000e+00    0.000000000e+00    0.000000000e+00    0.000000000e+00
       28137500   -3.976652622e-01   -6.463274956e-01    3.195340105e-05    4.701680155e-06    0.000000000e+00    0.000000000e+00    0.000000000e+00    0.000000000e+00
       28140000   -4.001187980e-01   -6.431719065e-01    1.317240549e-05    2.438354204e-05    0.000000000e+00    0.000000000e+00    0.000000000e+00    0.000000000e+00
       28142500   -4.025513232e-01   -6.398304105e-01    1.807989793e-05    9.345617582e-05    0.000000000e+00    0.000000000e+00    0.000000000e+00    0.000000000e+00
       28145000   -4.048569500e-01   -6.365203857e-01    4.756899580e-05   -3.968990859e-05    0.000000000e+00    0.000000000e+00    0.000000000e+00    0.000000000e+00
       28147500   -4.071290493e-01   -6.330971122e-01    2.523936746e-05    1.854626680e-05    0.000000000e+00    0.000000000e+00    0.000000000e+00    0.000000000e+00
       28150000   -4.094166160e-01   -6.298076510e-01    5.739246944e-07    6.156784366e-05    0.000000000e+00    0.000000000e+00    0.000000000e+00    0.000000000e+00
       28152500   -4.119279981e-01   -6.264701486e-01    6.922857574e-05   -8.328519471e-06    0.000000000e+00    0.000000000e+00    0.000000000e+00    0.000000000e+00
       28155000   -4.141796827e-01   -6.230641007e-01    7.766180352e-05    1.490245540e-05    0.000000000e+00    0.000000000e+00    0.000000000e+00    0.000000000e+00
       28157500   -4.166191518e-01   -6.194863915e-01    4.535473272e-05    3.894669862e-05    0.000000000e+00    0.000000000e+00    0.000000000e+00    0.000000000e+00
       28160000   -4.189322293e-01   -6.161172390e-01   -1.350582716e-05    4.869138138e-05    0.000000000e+00    0.000000000e+00    0.000000000e+00    0.000000000e+00
       28162500   -4.212350547e-01   -6.126802564e-01   -1.736248851e-05    3.845729680e-06    0.000000000e+00    0.000000000e+00    0.000000000e+00    0.000000000e+00
       28165000   -4.233765006e-01   -6.091752648e-01    3.956815635e-05    2.531241989e-05    0.000000000e+00    0.000000000e+00    0.000000000e+00    0.000000000e+00
       28167500   -4.256528616e-01   -6.055607796e-01    5.315615454e-06    2.641670335e-06    0.000000000e+00    0.000000000e+00    0.000000000e+00    0.000000000e+00
       28170000   -4.278857708e-01   -6.021303535e-01    3.921018651e-05    1.558448639e-05    0.000000000e+00    0.000000000e+00    0.000000000e+00    0.000000000e+00
       28172500   -4.300730526e-01   -5.985258818e-01    1.241747941e-05    7.739656576e-05    0.000000000e+00    0.000000000e+00    0.000000000e+00    0.000000000e+00
       28175000   -4.321309924e-01   -5.949836373e-01    4.755138434e-05    7.133723557e-05    0.000000000e+00    0.000000000e+00    0.000000000e+00    0.000000000e+00
       28177500   -4.342533946e-01   -5.913164616e-01    5.150949801e-05    4.037611870e-05    0.000000000e+00    0.000000000e+00    0.000000000e+00    0.000000000e+00
       28180000   -4.364003241e-01   -5.877668858e-01    3.218495840e-05    9.444907846e-06    0.000000000e+00    0.000000000e+00    0.000000000e+00    0.000000000e+00
       28182500   -4.386409223e-01   -5.841346979e-01    3.509116868e-05    7.005742646e-06    0.000000000e+00    0.000000000e+00    0.000000000e+00    0.000000000e+00
       28185000   -4.406908453e-01   -5.804463625e-01    1.021550088e-05    1.495587458e-05    0.000000000e+00    0.000000000e+00    0.000000000e+00    0.000000000e+00
       28187500   -4.427914619e-01   -5.767340660e-01    5.642521137e-05    2.910692274e-05    0.000000000e+00    0.000000000e+00    0.000000000e+00    0.000000000e+00
       28190000   -4.446741939e-01   -5.730814934e-01    1.412478196e-05    3.193983866e-05    0.000000000e+00    0.000000000e+00    0.000000000e+00    0.000000000e+00
       28192500   -4.467866421e-01   -5.694156289e-01    2.375125587e-05   -1.039998187e-05    0.000000000e+00    0.000000000e+00    0.000000000e+00    0.000000000e+00
       28195000   -4.487389922e-01   -5.655252337e-01    2.172729546e-05   -6.872784297e-07    0.000000000e+00    0.000000000e+00    0.000000000e+00    0.000000000e+00
       28197500   -4.507401288e-01   -5.619795918e-01   -8.985717614e-06    7.570263551e-05    0.000000000e+00    0.000000000e+00    0.000000000e+00    0.000000000e+00
       28200000   -4.526923001e-01   -5.580812097e-01    5.324990980e-06    2.167443745e-05    0.000000000e+00    0.000000000e+00    0.000000000e+00    0.000000000e+00
       28202500   -4.546764791e-01   -5.542426109e-01    8.592861559e-05    4.829335012e-05    0.000000000e+00    0.000000000e+00    0.000000000e+00    0.000000000e+00
       28205000   -4.565407336e-01   -5.504538417e-01    4.135508061e-05    8.919479114e-06    0.000000000e+00    0.000000000e+00    0.000000000e+00    0.000000000e+00
       28207500   -4.584043920e-01   -5.466048121e-01    2.989662244e-05    1.329718907e-05    0.000000000e+00    0.000000000e+00    0.000000000e+00    0.000000000e+00
       28210000   -4.602719843e-01   -5.427298546e-01    1.725955917e-05    6.313524500e-05    0.000000000e+00    0.000000000e+00    0.000000000e+00    0.000000000e+00
       28212500   -4.620835483e-01   -5.389267206e-01    2.144714563e-05    3.303916674e-05    0.000000000e+00    0.000000000e+00    0.000000000e+00    0.000000000e+00
       28215000   -4.639017880e-01   -5.349675417e-01    6.010940706e-05   -3.163252768e-05    0.000000000e+00    0.000000000e+00    0.000000000e+00    0.000000000e+00
       28217500   -4.656127095e-01   -5.309156775e-01    6.116621807e-05   -6.497291452e-07    0.000000000e+00    0.000000000e+00    0.000000000e+00    0.000000000e+00
       28220000   -4.674979150e-01   -5.269213915e-01   -3.615331252e-06   -2.940381455e-05    0.000000000e+00    0.000000000e+00    0.000000000e+00    0.000000000e+00
       28222500   -4.693790078e-01   -5.231996775e-01    1.687763324e-05    4.160714161e-05    0.000000000e+00    0.000000000e+00    0.000000000e+00    0.000000000e+00
       28225000   -4.710490704e-01   -5.192010999e-01    3.825637759e-05   -4.118085053e-05    0.000000000e+00    0.000000000e+00    0.000000000e+00    0.000000000e+00
       28227500   -4.726429880e-01   -5.152034163e-01   -3.483692490e-05   -3.410069985e-05    0.000000000e+00    0.000000000e+00    0.000000000e+00    0.000000000e+00
       28230000   -4.742824137e-01   -5.111843348e-01    3.008626300e-05    1.565836465e-05    0.000000000e+00    0.000000000e+00    0.000000000e+00    0.000000000e+00
       28232500   -4.761280417e-01   -5.072043538e-01    6.840874994e-05   -1.217901058e-06    0.000000000e+00    0.000000000e+00    0.000000000e+00    0.000000000e+00
       28235000   -4.775981307e-01   -5.030915141e-01   -1.925671859e-05   -1.243123393e-06    0.000000000e+00    0.000000000e+00    0.000000000e+00    0.000000000e+00
       28237500   -4.791420102e-01   -4.991421998e-01    1.729866017e-05    4.216793241e-05    0.000000000e+00    0.000000000e+00    0.000000000e+00    0.000000000e+00
       28240000   -4.806774259e-01   -4.950760603e-01    7.043026017e-06    3.739722524e-05    0.000000000e+00    0.000000000e+00    0.000000000e+00    0.000000000e+00
       28242500   -4.820982516e-01   -4.910107851e-01    1.941575829e-05    3.634568930e-05    0.000000000e+00    0.000000000e+00    0.000000000e+00    0.000000000e+00
       28245000   -4.836124778e-01   -4.868105948e-01    4.550564336e-05    3.316826405e-05    0.000000000e+00    0.000000000e+00    0.000000000e+00    0.000000000e+00
       28247500   -4.851787686e-01   -4.828158021e-01    6.788114115e-05    2.074110307e-05    0.000000000e+00    0.000000000e+00    0.000000000e+00    0.000000000e+00
       28250000   -4.867506623e-01   -4.785167873e-01    3.036521775e-05   -2.299507651e-05    0.000000000e+00    0.000000000e+00    0.000000000e+00    0.000000000e+00
       28252500   -4.881300926e-01   -4.744302034e-01    3.648447455e-05    1.552634967e-05    0.000000000e+00    0.000000000e+00    0.000000000e+00    0.000000000e+00
       28255000   -4.894220829e-01   -4.703655541e-01    1.020322597e-04    3.589758489e-05    0.000000000e+00    0.000000000e+00    0.000000000e+00    0.000000000e+00
       28257500   -4.908654094e-01   -4.662860930e-01   -4.493662345e-06    2.299234620e-05    0.000000000e+00    0.000000000e+00    0.000000000e+00    0.000000000e+00
       28260000   -4.920942783e-01   -4.620395303e-01    2.532732469e-05    4.397394150e-05    0.000000000e+00    0.000000000e+00    0.000000000e+00    0.000000000e+00
       28262500   -4.932207763e-01   -4.578139484e-01    1.040366169e-05   -1.440624965e-05    0.000000000e+00    0.000000000e+00    0.000000000e+00    0.000000000e+00
       28265000   -4.945355356e-01   -4.536014795e-01    2.473712266e-05    1.488846101e-05    0.000000000e+00    0.000000000e+00    0.000000000e+00    0.000000000e+00
       28267500   -4.956580400e-01   -4.493579566e-01   -2.306497845e-05    5.290187983e-05    0.000000000e+00    0.000000000e+00    0.000000000e+00    0.000000000e+00
       28270000   -4.967701733e-01   -4.450289905e-01    4.991240712e-05    5.884130587e-05    0.000000000e+00    0.000000000e+00    0.000000000e+00    0.000000000e+00
       28272500   -4.978941977e-01   -4.409165084e-01    1.119507942e-05   -2.100832535e-05    0.000000000e+00    0.000000000e+00    0.000000000e+00    0.000000000e+00
       28275000   -4.990650117e-01   -4.366182089e-01    2.232671068e-05   -6.421584658e-06    0.000000000e+00    0.000000000e+00    0.000000000e+00    0.000000000e+00
       28277500   -5.000672936e-01   -4.324165881e-01    2.104370833e-05   -1.296606388e-05    0.000000000e+00    0.000000000e+00    0.000000000e+00    0.000000000e+00
       28280000   -5.010986924e-01   -4.281031787e-01    8.466113286e-06    3.175460006e-05    0.000000000e+00    0.000000000e+00    0.000000000e+00    0.000000000e+00
       28282500   -5.021240115e-01   -4.238649011e-01   -9.207099538e-06   -2.328700248e-05    0.000000000e+00    0.000000000e+00    0.000000000e+00    0.000000000e+00
       28285000   -5.029199719e-01   -4.197429717e-01    5.253493873e-05    1.890719795e-05    0.000000000e+00    0.000000000e+00    0.000000000e+00    0.000000000e+00
       28287500   -5.038638711e-01   -4.154227674e-01    6.565848162e-05   -2.111838876e-05    0.000000000e+00    0.000000000e+00    0.000000000e+00    0.000000000e+00
       28290000   -5.049533248e-01   -4.110140204e-01    6.043080793e-05    4.754447582e-05    0.000000000e+00    0.000000000e+00    0.000000000e+00    0.000000000e+00
