! NanoVNA-App by OneOfEleven et al v1.1.209 (+OD18) 
! Date: 2025-07-14 21:07:32
! Start: 27MHz Stop: 30MHz Points: 801
! S-Parameter data: F S11
# Hz S RI R 50
!     Frequency           S11_Real           S11_Imag
       27000000    5.701776743e-01   -7.790777087e-01
       27003750    5.684045553e-01   -7.804675102e-01
       27007500    5.668860078e-01   -7.818282247e-01
       27011250    5.652508140e-01   -7.828744054e-01
       27015000    5.636584163e-01   -7.842743993e-01
       27018750    5.619801879e-01   -7.854340672e-01
       27022500    5.604334474e-01   -7.868244052e-01
       27026250    5.586043000e-01   -7.880466580e-01
       27030000    5.569416285e-01   -7.892475724e-01
       27033750    5.551727414e-01   -7.904026508e-01
       27037500    5.535767674e-01   -7.915450931e-01
       27041250    5.519278646e-01   -7.929509878e-01
       27045000    5.501941442e-01   -7.942935824e-01
       27048750    5.485829711e-01   -7.956200242e-01
       27052500    5.466074944e-01   -7.967318296e-01
       27056250    5.447946787e-01   -7.978624701e-01
       27060000    5.431359410e-01   -7.991766930e-01
       27063750    5.413694978e-01   -8.005995154e-01
       27067500    5.396641493e-01   -8.015710711e-01
       27071250    5.378852487e-01   -8.027966022e-01
       27075000    5.360649228e-01   -8.040828109e-01
       27078750    5.341771245e-01   -8.053972721e-01
       27082500    5.322951078e-01   -8.064480424e-01
       27086250    5.306078196e-01   -8.077455759e-01
       27090000    5.286361575e-01   -8.088363409e-01
       27093750    5.268757939e-01   -8.100543022e-01
       27097500    5.250780582e-01   -8.109736443e-01
       27101250    5.233270526e-01   -8.124166131e-01
       27105000    5.214183927e-01   -8.135253191e-01
       27108750    5.194419026e-01   -8.148626685e-01
       27112500    5.174770355e-01   -8.158564568e-01
       27116250    5.157093406e-01   -8.171591759e-01
       27120000    5.137188435e-01   -8.182665706e-01
       27123750    5.119230151e-01   -8.195716143e-01
       27127500    5.097287297e-01   -8.205238581e-01
       27131250    5.079351068e-01   -8.217314482e-01
       27135000    5.060180426e-01   -8.229721189e-01
       27138750    5.041425228e-01   -8.240205646e-01
       27142500    5.020717978e-01   -8.252547383e-01
       27146250    5.001072884e-01   -8.265002966e-01
       27150000    4.983749986e-01   -8.275347352e-01
       27153750    4.963191450e-01   -8.289806247e-01
       27157500    4.944892228e-01   -8.297420740e-01
       27161250    4.921605885e-01   -8.309644461e-01
       27165000    4.903915226e-01   -8.321552277e-01
       27168750    4.883139431e-01   -8.333162069e-01
       27172500    4.863635302e-01   -8.343140483e-01
       27176250    4.843235016e-01   -8.354614973e-01
       27180000    4.818808436e-01   -8.365297914e-01
       27183750    4.799728394e-01   -8.374885321e-01
       27187500    4.779827893e-01   -8.388599157e-01
       27191250    4.759197533e-01   -8.397572637e-01
       27195000    4.740461111e-01   -8.409463763e-01
       27198750    4.717788398e-01   -8.421204686e-01
       27202500    4.695363641e-01   -8.436265588e-01
       27206250    4.674516916e-01   -8.441120982e-01
       27210000    4.652874470e-01   -8.453574181e-01
       27213750    4.629841149e-01   -8.464471102e-01
       27217500    4.609506428e-01   -8.474025726e-01
       27221250    4.587479532e-01   -8.483411074e-01
       27225000    4.569560289e-01   -8.496158123e-01
       27228750    4.544518292e-01   -8.506639004e-01
       27232500    4.524135590e-01   -8.515732288e-01
       27236250    4.502145648e-01   -8.527266383e-01
       27240000    4.480897784e-01   -8.539386988e-01
       27243750    4.459439516e-01   -8.548758626e-01
       27247500    4.433203042e-01   -8.559951782e-01
       27251250    4.412408173e-01   -8.570369482e-01
       27255000    4.391374290e-01   -8.581860065e-01
       27258750    4.365577102e-01   -8.590077758e-01
       27262500    4.346151054e-01   -8.601580858e-01
       27266250    4.322479069e-01   -8.611408472e-01
       27270000    4.300749004e-01   -8.619353175e-01
       27273750    4.278365374e-01   -8.632878661e-01
       27277500    4.252280891e-01   -8.641626239e-01
       27281250    4.231956601e-01   -8.651028275e-01
       27285000    4.206559360e-01   -8.663569689e-01
       27288750    4.182502329e-01   -8.671730757e-01
       27292500    4.160169959e-01   -8.681484461e-01
       27296250    4.136693478e-01   -8.692592382e-01
       27300000    4.113480449e-01   -8.701785207e-01
       27303750    4.089065194e-01   -8.715561628e-01
       27307500    4.065345526e-01   -8.723183870e-01
       27311250    4.039628804e-01   -8.731004596e-01
       27315000    4.016541541e-01   -8.742891550e-01
       27318750    3.991064727e-01   -8.751890659e-01
       27322500    3.966852427e-01   -8.762922883e-01
       27326250    3.942119777e-01   -8.772504926e-01
       27330000    3.918503821e-01   -8.782643080e-01
       27333750    3.892910779e-01   -8.792587519e-01
       27337500    3.867742121e-01   -8.802233338e-01
       27341250    3.842249513e-01   -8.809270859e-01
       27345000    3.816527724e-01   -8.821215034e-01
       27348750    3.790154755e-01   -8.829742074e-01
       27352500    3.766040206e-01   -8.839283586e-01
       27356250    3.739558160e-01   -8.849692941e-01
       27360000    3.714399338e-01   -8.859059811e-01
       27363750    3.687605858e-01   -8.868422508e-01
       27367500    3.660303056e-01   -8.876286745e-01
       27371250    3.634079397e-01   -8.885434270e-01
       27375000    3.609326482e-01   -8.896346092e-01
       27378750    3.581332564e-01   -8.907196522e-01
       27382500    3.556225300e-01   -8.913636208e-01
       27386250    3.528714776e-01   -8.924729824e-01
       27390000    3.500456512e-01   -8.933270574e-01
       27393750    3.473428786e-01   -8.942250013e-01
       27397500    3.444606066e-01   -8.952681422e-01
       27401250    3.418163061e-01   -8.960770369e-01
       27405000    3.390729427e-01   -8.971551657e-01
       27408750    3.361418843e-01   -8.982586861e-01
       27412500    3.331992328e-01   -8.990732431e-01
       27416250    3.303543031e-01   -9.000543952e-01
       27420000    3.273938000e-01   -9.008507729e-01
       27423750    3.245361149e-01   -9.016811848e-01
       27427500    3.216037452e-01   -9.026682377e-01
       27431250    3.185104132e-01   -9.036857486e-01
       27435000    3.155560791e-01   -9.044737220e-01
       27438750    3.123564422e-01   -9.054259062e-01
       27442500    3.092381954e-01   -9.062044621e-01
       27446250    3.061513901e-01   -9.070591331e-01
       27450000    3.028679490e-01   -9.080820680e-01
       27453750    2.995908856e-01   -9.090645909e-01
       27457500    2.963480949e-01   -9.098494649e-01
       27461250    2.929838896e-01   -9.107812643e-01
       27465000    2.896858156e-01   -9.114988446e-01
       27468750    2.861624956e-01   -9.124729633e-01
       27472500    2.826750576e-01   -9.132345915e-01
       27476250    2.790973485e-01   -9.137720466e-01
       27480000    2.753833830e-01   -9.145378470e-01
       27483750    2.718006074e-01   -9.151117206e-01
       27487500    2.680234313e-01   -9.155791402e-01
       27491250    2.641594112e-01   -9.161363244e-01
       27495000    2.602458298e-01   -9.164222479e-01
       27498750    2.563824654e-01   -9.168066382e-01
       27502500    2.522119880e-01   -9.169554710e-01
       27506250    2.484744340e-01   -9.169431329e-01
       27510000    2.443633825e-01   -9.168603420e-01
       27513750    2.404083163e-01   -9.166815281e-01
       27517500    2.366717458e-01   -9.164265990e-01
       27521250    2.327304184e-01   -9.159369469e-01
       27525000    2.290101647e-01   -9.153623581e-01
       27528750    2.254779786e-01   -9.146055579e-01
       27532500    2.219551653e-01   -9.141557217e-01
       27536250    2.184265852e-01   -9.131943583e-01
       27540000    2.152384520e-01   -9.123724699e-01
       27543750    2.119484246e-01   -9.117332101e-01
       27547500    2.089144439e-01   -9.110281467e-01
       27551250    2.060267627e-01   -9.102108479e-01
       27555000    2.029794604e-01   -9.095437527e-01
       27558750    2.004870772e-01   -9.088362455e-01
       27562500    1.976100802e-01   -9.083890915e-01
       27566250    1.947835088e-01   -9.080097675e-01
       27570000    1.921156496e-01   -9.076120853e-01
       27573750    1.893664747e-01   -9.071646333e-01
       27577500    1.867479384e-01   -9.070200920e-01
       27581250    1.840940863e-01   -9.065513611e-01
       27585000    1.812588423e-01   -9.067456722e-01
       27588750    1.786824465e-01   -9.065183401e-01
       27592500    1.759638041e-01   -9.064407349e-01
       27596250    1.729706675e-01   -9.063679576e-01
       27600000    1.701610535e-01   -9.062572122e-01
       27603750    1.672627777e-01   -9.062327147e-01
       27607500    1.643608063e-01   -9.064273834e-01
       27611250    1.613133699e-01   -9.064195752e-01
       27615000    1.583511829e-01   -9.065149426e-01
       27618750    1.554890871e-01   -9.064914584e-01
       27622500    1.523114443e-01   -9.067465067e-01
       27626250    1.492833942e-01   -9.064875245e-01
       27630000    1.460705847e-01   -9.064033031e-01
       27633750    1.429982483e-01   -9.067422748e-01
       27637500    1.397174895e-01   -9.066747427e-01
       27641250    1.363697499e-01   -9.066385627e-01
       27645000    1.331032664e-01   -9.067778587e-01
       27648750    1.299150735e-01   -9.067240953e-01
       27652500    1.263501942e-01   -9.067093134e-01
       27656250    1.232216060e-01   -9.066439271e-01
       27660000    1.197052747e-01   -9.066813588e-01
       27663750    1.163537204e-01   -9.064648151e-01
       27667500    1.131443828e-01   -9.064351320e-01
       27671250    1.096320897e-01   -9.063172936e-01
       27675000    1.059238538e-01   -9.061896801e-01
       27678750    1.024320945e-01   -9.060688615e-01
       27682500    9.883608669e-02   -9.057622552e-01
       27686250    9.547662735e-02   -9.057492018e-01
       27690000    9.188131988e-02   -9.054113626e-01
       27693750    8.834572136e-02   -9.053179026e-01
       27697500    8.468449861e-02   -9.049893022e-01
       27701250    8.104713261e-02   -9.048259854e-01
       27705000    7.734582573e-02   -9.044698477e-01
       27708750    7.378091663e-02   -9.040507078e-01
       27712500    7.007753104e-02   -9.038120508e-01
       27716250    6.625588238e-02   -9.034232497e-01
       27720000    6.262540817e-02   -9.033412933e-01
       27723750    5.889553949e-02   -9.024385214e-01
       27727500    5.514574796e-02   -9.022666812e-01
       27731250    5.136480182e-02   -9.020051956e-01
       27735000    4.755235091e-02   -9.011805654e-01
       27738750    4.364338145e-02   -9.006760120e-01
       27742500    4.008389264e-02   -9.003129005e-01
       27746250    3.607719019e-02   -8.999395967e-01
       27750000    3.210824355e-02   -8.991822004e-01
       27753750    2.839163318e-02   -8.986768723e-01
       27757500    2.451719344e-02   -8.980111480e-01
       27761250    2.074025199e-02   -8.974462748e-01
       27765000    1.655914262e-02   -8.966126442e-01
       27768750    1.277685724e-02   -8.959164619e-01
       27772500    8.598404936e-03   -8.953366280e-01
       27776250    4.752938170e-03   -8.943805695e-01
       27780000    8.648670046e-04   -8.936520815e-01
       27783750   -2.903162735e-03   -8.927946091e-01
       27787500   -6.991834845e-03   -8.919740915e-01
       27791250   -1.115530916e-02   -8.912516236e-01
       27795000   -1.493360568e-02   -8.902106285e-01
       27798750   -1.904805191e-02   -8.891812563e-01
       27802500   -2.317151241e-02   -8.884839416e-01
       27806250   -2.725877799e-02   -8.874166608e-01
       27810000   -3.127535060e-02   -8.862048388e-01
       27813750   -3.548879921e-02   -8.852924705e-01
       27817500   -3.931821510e-02   -8.841164708e-01
       27821250   -4.359887540e-02   -8.830580711e-01
       27825000   -4.764863104e-02   -8.819208145e-01
       27828750   -5.208332092e-02   -8.806599379e-01
       27832500   -5.591455474e-02   -8.793327212e-01
       27836250   -6.018488482e-02   -8.781535625e-01
       27840000   -6.421821564e-02   -8.768993020e-01
       27843750   -6.850995868e-02   -8.756685257e-01
       27847500   -7.249369472e-02   -8.744068742e-01
       27851250   -7.668703794e-02   -8.730154037e-01
       27855000   -8.085566759e-02   -8.714665771e-01
       27858750   -8.497545868e-02   -8.700491786e-01
       27862500   -8.918648958e-02   -8.687354922e-01
       27866250   -9.332630783e-02   -8.671095371e-01
       27870000   -9.747341275e-02   -8.656625748e-01
       27873750   -1.017201394e-01   -8.641043305e-01
       27877500   -1.059394553e-01   -8.625811338e-01
       27881250   -1.100283191e-01   -8.611828685e-01
       27885000   -1.141117513e-01   -8.593629003e-01
       27888750   -1.176079512e-01   -8.579239249e-01
       27892500   -1.216731295e-01   -8.563021421e-01
       27896250   -1.259274036e-01   -8.542910218e-01
       27900000   -1.301129013e-01   -8.525401950e-01
       27903750   -1.347677559e-01   -8.505009413e-01
       27907500   -1.388432533e-01   -8.485541344e-01
       27911250   -1.431959271e-01   -8.465576768e-01
       27915000   -1.476782858e-01   -8.447276354e-01
       27918750   -1.518959254e-01   -8.425602317e-01
       27922500   -1.562989801e-01   -8.405545950e-01
       27926250   -1.605915129e-01   -8.385896683e-01
       27930000   -1.651729047e-01   -8.363275528e-01
       27933750   -1.695503592e-01   -8.340377808e-01
       27937500   -1.738159060e-01   -8.317434788e-01
       27941250   -1.783278137e-01   -8.294055462e-01
       27945000   -1.826779991e-01   -8.270488977e-01
       27948750   -1.869762838e-01   -8.246774077e-01
       27952500   -1.914470643e-01   -8.223157525e-01
       27956250   -1.958412230e-01   -8.199127316e-01
       27960000   -2.002677470e-01   -8.173282146e-01
       27963750   -2.046785653e-01   -8.147827983e-01
       27967500   -2.090135068e-01   -8.122251034e-01
       27971250   -2.134185284e-01   -8.095834255e-01
       27975000   -2.179531604e-01   -8.068489432e-01
       27978750   -2.223482579e-01   -8.041461706e-01
       27982500   -2.267330438e-01   -8.013879657e-01
       27986250   -2.310373485e-01   -7.984485626e-01
       27990000   -2.354941368e-01   -7.956311107e-01
       27993750   -2.399117053e-01   -7.927938700e-01
       27997500   -2.443486899e-01   -7.896558046e-01
       28001250   -2.484732419e-01   -7.867683768e-01
       28005000   -2.528215349e-01   -7.836122513e-01
       28008750   -2.572751343e-01   -7.806431055e-01
       28012500   -2.616207302e-01   -7.773711085e-01
       28016250   -2.661554217e-01   -7.743540406e-01
       28020000   -2.703171968e-01   -7.709359527e-01
       28023750   -2.747134566e-01   -7.676533461e-01
       28027500   -2.790414393e-01   -7.642876506e-01
       28031250   -2.833914757e-01   -7.608091235e-01
       28035000   -2.875773609e-01   -7.574408054e-01
       28038750   -2.920188606e-01   -7.539365888e-01
       28042500   -2.964246869e-01   -7.504104972e-01
       28046250   -3.004324138e-01   -7.466505170e-01
       28050000   -3.047503531e-01   -7.431383729e-01
       28053750   -3.090690672e-01   -7.393763065e-01
       28057500   -3.132196367e-01   -7.356473207e-01
       28061250   -3.173826635e-01   -7.318450809e-01
       28065000   -3.215870261e-01   -7.279167771e-01
       28068750   -3.257733285e-01   -7.241228819e-01
       28072500   -3.298793435e-01   -7.199725509e-01
       28076250   -3.339701891e-01   -7.159318924e-01
       28080000   -3.380811214e-01   -7.118323445e-01
       28083750   -3.422220349e-01   -7.078655362e-01
       28087500   -3.462924361e-01   -7.037181854e-01
       28091250   -3.502852023e-01   -6.994805932e-01
       28095000   -3.541937768e-01   -6.950989366e-01
       28098750   -3.581814766e-01   -6.907916665e-01
       28102500   -3.621940911e-01   -6.863313317e-01
       28106250   -3.660679758e-01   -6.818348169e-01
       28110000   -3.699871302e-01   -6.774362922e-01
       28113750   -3.737637997e-01   -6.729307175e-01
       28117500   -3.777916133e-01   -6.683604121e-01
       28121250   -3.813931942e-01   -6.637220383e-01
       28125000   -3.868097961e-01   -6.586959958e-01
       28128750   -3.905138075e-01   -6.538932920e-01
       28132500   -3.941444159e-01   -6.490394473e-01
       28136250   -3.977803886e-01   -6.442940831e-01
       28140000   -4.015366733e-01   -6.392629743e-01
       28143750   -4.049673080e-01   -6.342707276e-01
       28147500   -4.083742499e-01   -6.293333769e-01
       28151250   -4.120889306e-01   -6.243619919e-01
       28155000   -4.154379070e-01   -6.191727519e-01
       28158750   -4.190274775e-01   -6.140853167e-01
       28162500   -4.224677980e-01   -6.089015007e-01
       28166250   -4.256004989e-01   -6.035550833e-01
       28170000   -4.288710356e-01   -5.983485579e-01
       28173750   -4.320557714e-01   -5.928354859e-01
       28177500   -4.353172779e-01   -5.876098871e-01
       28181250   -4.384484589e-01   -5.820601583e-01
       28185000   -4.415489137e-01   -5.766916275e-01
       28188750   -4.444914460e-01   -5.710950494e-01
       28192500   -4.474570453e-01   -5.654828548e-01
       28196250   -4.503000379e-01   -5.600096583e-01
       28200000   -4.531551898e-01   -5.541287661e-01
       28203750   -4.561741650e-01   -5.484701991e-01
       28207500   -4.588302374e-01   -5.426095724e-01
       28211250   -4.616103768e-01   -5.370010734e-01
       28215000   -4.641267359e-01   -5.312016606e-01
       28218750   -4.668910503e-01   -5.251247287e-01
       28222500   -4.694570899e-01   -5.193127394e-01
       28226250   -4.717788398e-01   -5.133448243e-01
       28230000   -4.743510783e-01   -5.074721575e-01
       28233750   -4.765808582e-01   -5.013031363e-01
       28237500   -4.786857963e-01   -4.954478741e-01
       28241250   -4.810448885e-01   -4.892595112e-01
       28245000   -4.831983447e-01   -4.830272198e-01
       28248750   -4.853075147e-01   -4.769317508e-01
       28252500   -4.873119593e-01   -4.708282351e-01
       28256250   -4.893170297e-01   -4.645772278e-01
       28260000   -4.911250174e-01   -4.582318664e-01
       28263750   -4.930103123e-01   -4.519672096e-01
       28267500   -4.946375787e-01   -4.457492530e-01
       28271250   -4.963479340e-01   -4.394074380e-01
       28275000   -4.979735017e-01   -4.331237972e-01
       28278750   -4.993158579e-01   -4.267001152e-01
       28282500   -5.009010434e-01   -4.203090668e-01
       28286250   -5.021182895e-01   -4.139432311e-01
       28290000   -5.034956932e-01   -4.074251950e-01
       28293750   -5.047026277e-01   -4.011189938e-01
       28297500   -5.059478283e-01   -3.946382701e-01
       28301250   -5.069963932e-01   -3.880196512e-01
       28305000   -5.080227256e-01   -3.816653788e-01
       28308750   -5.087648630e-01   -3.751276433e-01
       28312500   -5.097516179e-01   -3.686735332e-01
       28316250   -5.104677677e-01   -3.621555567e-01
       28320000   -5.110625625e-01   -3.555128872e-01
       28323750   -5.116779804e-01   -3.492062092e-01
       28327500   -5.123075247e-01   -3.426161706e-01
       28331250   -5.127943158e-01   -3.361621499e-01
       28335000   -5.130784512e-01   -3.295722604e-01
       28338750   -5.134623051e-01   -3.230966032e-01
       28342500   -5.135714412e-01   -3.164421618e-01
       28346250   -5.136083364e-01   -3.099497855e-01
       28350000   -5.136971474e-01   -3.035854697e-01
       28353750   -5.136853456e-01   -2.970725298e-01
       28357500   -5.136071444e-01   -2.906785011e-01
       28361250   -5.134437680e-01   -2.840558290e-01
       28365000   -5.130343437e-01   -2.776561677e-01
       28368750   -5.128720999e-01   -2.712137997e-01
