! NanoVNA-App by OneOfEleven et al v1.1.209 (+OD18) 
! Date: 2025-07-14 21:09:12
! Start: 28MHz Stop: 30MHz Points: 801
! S-Parameter data: F S11 S21 S12 S22
# Hz S RI R 50
!     Frequency           S11_Real           S11_Imag           S21_Real           S21_Imag           S12_Real           S12_Imag           S22_Real           S22_Imag
       28000000   -2.483885288e-01   -7.903817296e-01    1.025000820e-04    5.091059211e-05    0.000000000e+00    0.000000000e+00    0.000000000e+00    0.000000000e+00
       28002500   -2.513184249e-01   -7.882828712e-01    3.806958921e-05    3.001838013e-05    0.000000000e+00    0.000000000e+00    0.000000000e+00    0.000000000e+00
       28005000   -2.541735768e-01   -7.863934040e-01    3.280918099e-05    9.868001143e-06    0.000000000e+00    0.000000000e+00    0.000000000e+00    0.000000000e+00
       28007500   -2.573828995e-01   -7.842108011e-01    7.214370271e-05   -1.968525066e-05    0.000000000e+00    0.000000000e+00    0.000000000e+00    0.000000000e+00
       28010000   -2.601433098e-01   -7.820867300e-01    2.579395368e-05    5.389149374e-05    0.000000000e+00    0.000000000e+00    0.000000000e+00    0.000000000e+00
       28012500   -2.630286813e-01   -7.800583243e-01   -5.424530627e-06    3.430374636e-05    0.000000000e+00    0.000000000e+00    0.000000000e+00    0.000000000e+00
       28015000   -2.658942342e-01   -7.777601480e-01    7.138904039e-05    1.603554483e-05    0.000000000e+00    0.000000000e+00    0.000000000e+00    0.000000000e+00
       28017500   -2.688237429e-01   -7.757891417e-01   -4.918021659e-06    3.012698471e-05    0.000000000e+00    0.000000000e+00    0.000000000e+00    0.000000000e+00
       28020000   -2.717666626e-01   -7.736340761e-01    3.613187437e-05    4.515629189e-05    0.000000000e+00    0.000000000e+00    0.000000000e+00    0.000000000e+00
       28022500   -2.745917737e-01   -7.714325190e-01    1.126942607e-05    3.427298361e-05    0.000000000e+00    0.000000000e+00    0.000000000e+00    0.000000000e+00
       28025000   -2.775132656e-01   -7.691168189e-01    3.816607204e-05    5.043834608e-05    0.000000000e+00    0.000000000e+00    0.000000000e+00    0.000000000e+00
       28027500   -2.803687155e-01   -7.669654489e-01   -5.650676371e-07    2.372269228e-05    0.000000000e+00    0.000000000e+00    0.000000000e+00    0.000000000e+00
       28030000   -2.830342948e-01   -7.647168636e-01    3.272316462e-05    5.363660239e-05    0.000000000e+00    0.000000000e+00    0.000000000e+00    0.000000000e+00
       28032500   -2.862348258e-01   -7.625465393e-01    2.973564551e-05    8.370793512e-05    0.000000000e+00    0.000000000e+00    0.000000000e+00    0.000000000e+00
       28035000   -2.889634073e-01   -7.600125670e-01    1.702015993e-06    5.273637362e-05    0.000000000e+00    0.000000000e+00    0.000000000e+00    0.000000000e+00
       28037500   -2.917835712e-01   -7.579263449e-01   -1.942740528e-05    8.714339492e-05    0.000000000e+00    0.000000000e+00    0.000000000e+00    0.000000000e+00
       28040000   -2.946856022e-01   -7.553286552e-01    4.278810229e-05    2.967028195e-05    0.000000000e+00    0.000000000e+00    0.000000000e+00    0.000000000e+00
       28042500   -2.974271476e-01   -7.531757951e-01   -1.966991476e-06    3.689898222e-05    0.000000000e+00    0.000000000e+00    0.000000000e+00    0.000000000e+00
       28045000   -3.002960980e-01   -7.506415844e-01    2.177953684e-05    1.270558823e-05    0.000000000e+00    0.000000000e+00    0.000000000e+00    0.000000000e+00
       28047500   -3.032595217e-01   -7.483497262e-01    3.875064067e-05    3.467380520e-05    0.000000000e+00    0.000000000e+00    0.000000000e+00    0.000000000e+00
       28050000   -3.062561452e-01   -7.458781004e-01    2.324152956e-05    6.269066944e-06    0.000000000e+00    0.000000000e+00    0.000000000e+00    0.000000000e+00
       28052500   -3.089775443e-01   -7.435469031e-01    9.256328667e-06    1.142770088e-05    0.000000000e+00    0.000000000e+00    0.000000000e+00    0.000000000e+00
       28055000   -3.116542101e-01   -7.409062982e-01   -6.894011221e-06    5.019097807e-05    0.000000000e+00    0.000000000e+00    0.000000000e+00    0.000000000e+00
       28057500   -3.144747317e-01   -7.384023666e-01   -4.994269329e-05    1.057828831e-05    0.000000000e+00    0.000000000e+00    0.000000000e+00    0.000000000e+00
       28060000   -3.173211515e-01   -7.359176874e-01    2.905842666e-05    5.381280425e-05    0.000000000e+00    0.000000000e+00    0.000000000e+00    0.000000000e+00
       28062500   -3.201584518e-01   -7.334045172e-01    6.142167695e-05    1.115639461e-04    0.000000000e+00    0.000000000e+00    0.000000000e+00    0.000000000e+00
       28065000   -3.228545785e-01   -7.309165597e-01    5.009887900e-05    1.785244240e-05    0.000000000e+00    0.000000000e+00    0.000000000e+00    0.000000000e+00
       28067500   -3.257352710e-01   -7.282201648e-01    2.612400931e-05    2.220582064e-05    0.000000000e+00    0.000000000e+00    0.000000000e+00    0.000000000e+00
       28070000   -3.282943666e-01   -7.254804969e-01    6.432458031e-05    2.553165905e-05    0.000000000e+00    0.000000000e+00    0.000000000e+00    0.000000000e+00
       28072500   -3.310928345e-01   -7.228577137e-01    3.636455949e-05    6.834141095e-05    0.000000000e+00    0.000000000e+00    0.000000000e+00    0.000000000e+00
       28075000   -3.340029418e-01   -7.203714252e-01    2.663976147e-06    5.462539048e-05    0.000000000e+00    0.000000000e+00    0.000000000e+00    0.000000000e+00
       28077500   -3.366325498e-01   -7.176519036e-01   -1.503564727e-05    2.425954699e-05    0.000000000e+00    0.000000000e+00    0.000000000e+00    0.000000000e+00
       28080000   -3.395208120e-01   -7.147936821e-01    8.003083349e-05    4.155447459e-05    0.000000000e+00    0.000000000e+00    0.000000000e+00    0.000000000e+00
       28082500   -3.421160579e-01   -7.122085094e-01   -2.729014886e-05    4.382078259e-05    0.000000000e+00    0.000000000e+00    0.000000000e+00    0.000000000e+00
       28085000   -3.447643220e-01   -7.094798088e-01    4.500209980e-05    4.640288171e-05    0.000000000e+00    0.000000000e+00    0.000000000e+00    0.000000000e+00
       28087500   -3.474907279e-01   -7.067458630e-01   -4.927952887e-06    4.761924720e-05    0.000000000e+00    0.000000000e+00    0.000000000e+00    0.000000000e+00
       28090000   -3.503409326e-01   -7.039338946e-01    6.935287092e-05    1.486508154e-05    0.000000000e+00    0.000000000e+00    0.000000000e+00    0.000000000e+00
       28092500   -3.526057899e-01   -7.009858489e-01    2.620983651e-06    2.141216828e-05    0.000000000e+00    0.000000000e+00    0.000000000e+00    0.000000000e+00
       28095000   -3.555037975e-01   -6.980316043e-01   -1.401335703e-05   -2.266716547e-05    0.000000000e+00    0.000000000e+00    0.000000000e+00    0.000000000e+00
       28097500   -3.582373261e-01   -6.953566074e-01   -1.392740705e-05    2.157700146e-05    0.000000000e+00    0.000000000e+00    0.000000000e+00    0.000000000e+00
       28100000   -3.608759046e-01   -6.923832893e-01   -9.583482097e-06    6.885268522e-05    0.000000000e+00    0.000000000e+00    0.000000000e+00    0.000000000e+00
       28102500   -3.635047972e-01   -6.895607114e-01    5.230796887e-05    7.256271056e-05    0.000000000e+00    0.000000000e+00    0.000000000e+00    0.000000000e+00
       28105000   -3.661482930e-01   -6.865695715e-01   -3.239798389e-05    4.497275586e-05    0.000000000e+00    0.000000000e+00    0.000000000e+00    0.000000000e+00
       28107500   -3.685118258e-01   -6.835408211e-01   -4.344864010e-06   -2.540496462e-05    0.000000000e+00    0.000000000e+00    0.000000000e+00    0.000000000e+00
       28110000   -3.714106679e-01   -6.806411147e-01    9.931020941e-06    9.220798347e-06    0.000000000e+00    0.000000000e+00    0.000000000e+00    0.000000000e+00
       28112500   -3.737661541e-01   -6.775681376e-01    5.235650315e-05    7.562436804e-05    0.000000000e+00    0.000000000e+00    0.000000000e+00    0.000000000e+00
       28115000   -3.764567375e-01   -6.746016145e-01    2.425420462e-05    7.199918764e-05    0.000000000e+00    0.000000000e+00    0.000000000e+00    0.000000000e+00
       28117500   -3.790303767e-01   -6.714255214e-01    8.713269926e-05    5.087248428e-05    0.000000000e+00    0.000000000e+00    0.000000000e+00    0.000000000e+00
       28120000   -3.816386461e-01   -6.682720780e-01    3.363481301e-05    2.226389370e-05    0.000000000e+00    0.000000000e+00    0.000000000e+00    0.000000000e+00
       28122500   -3.839925528e-01   -6.652104855e-01   -1.186991176e-05    6.970768300e-05    0.000000000e+00    0.000000000e+00    0.000000000e+00    0.000000000e+00
       28125000   -3.866229057e-01   -6.621676683e-01   -3.031758570e-05    4.051239375e-05    0.000000000e+00    0.000000000e+00    0.000000000e+00    0.000000000e+00
       28127500   -3.891012371e-01   -6.589955688e-01    5.446018258e-05    2.123118793e-05    0.000000000e+00    0.000000000e+00    0.000000000e+00    0.000000000e+00
       28130000   -3.916946054e-01   -6.557831168e-01   -4.486425678e-05    3.162038774e-05    0.000000000e+00    0.000000000e+00    0.000000000e+00    0.000000000e+00
       28132500   -3.940361440e-01   -6.526592970e-01    9.433505511e-06    5.767502898e-06    0.000000000e+00    0.000000000e+00    0.000000000e+00    0.000000000e+00
       28135000   -3.965435326e-01   -6.493245959e-01    2.841382775e-05    2.313360346e-05    0.000000000e+00    0.000000000e+00    0.000000000e+00    0.000000000e+00
       28137500   -3.989605606e-01   -6.461166739e-01   -2.287301686e-05    1.556234383e-05    0.000000000e+00    0.000000000e+00    0.000000000e+00    0.000000000e+00
       28140000   -4.013985395e-01   -6.428858042e-01    2.075662815e-05    5.321971184e-05    0.000000000e+00    0.000000000e+00    0.000000000e+00    0.000000000e+00
       28142500   -4.038361609e-01   -6.396511197e-01    3.486146306e-05    1.323823108e-05    0.000000000e+00    0.000000000e+00    0.000000000e+00    0.000000000e+00
       28145000   -4.061888158e-01   -6.361588836e-01    8.940765838e-05    5.639468509e-05    0.000000000e+00    0.000000000e+00    0.000000000e+00    0.000000000e+00
       28147500   -4.085321724e-01   -6.328968406e-01   -1.673841507e-05    4.490642095e-05    0.000000000e+00    0.000000000e+00    0.000000000e+00    0.000000000e+00
       28150000   -4.108772576e-01   -6.297025681e-01    7.365944475e-05    3.504756387e-05    0.000000000e+00    0.000000000e+00    0.000000000e+00    0.000000000e+00
       28152500   -4.132160246e-01   -6.262152791e-01    7.061987708e-05    1.448943931e-05    0.000000000e+00    0.000000000e+00    0.000000000e+00    0.000000000e+00
       28155000   -4.155544043e-01   -6.228470206e-01    6.169395056e-05    7.324106991e-05    0.000000000e+00    0.000000000e+00    0.000000000e+00    0.000000000e+00
       28157500   -4.178108871e-01   -6.193918586e-01   -1.169781717e-05    3.830893183e-05    0.000000000e+00    0.000000000e+00    0.000000000e+00    0.000000000e+00
       28160000   -4.202270210e-01   -6.158754230e-01   -6.096402103e-06    5.800755025e-05    0.000000000e+00    0.000000000e+00    0.000000000e+00    0.000000000e+00
       28162500   -4.224275649e-01   -6.124889255e-01   -6.650196838e-07    2.468859293e-06    0.000000000e+00    0.000000000e+00    0.000000000e+00    0.000000000e+00
       28165000   -4.246823788e-01   -6.089479923e-01    7.724991156e-05    7.103997632e-05    0.000000000e+00    0.000000000e+00    0.000000000e+00    0.000000000e+00
       28167500   -4.267992973e-01   -6.055628061e-01    1.659336340e-05    7.441914204e-05    0.000000000e+00    0.000000000e+00    0.000000000e+00    0.000000000e+00
       28170000   -4.291567504e-01   -6.018628478e-01   -5.957879694e-06    1.404887298e-04    0.000000000e+00    0.000000000e+00    0.000000000e+00    0.000000000e+00
       28172500   -4.314072728e-01   -5.983046889e-01    2.524236820e-08    1.154488928e-06    0.000000000e+00    0.000000000e+00    0.000000000e+00    0.000000000e+00
       28175000   -4.333649278e-01   -5.948500633e-01    4.407798042e-05    5.935814443e-06    0.000000000e+00    0.000000000e+00    0.000000000e+00    0.000000000e+00
       28177500   -4.354593456e-01   -5.910503268e-01    1.517563578e-05   -7.313883998e-06    0.000000000e+00    0.000000000e+00    0.000000000e+00    0.000000000e+00
       28180000   -4.375368953e-01   -5.875555277e-01   -4.190737855e-06    1.425354071e-06    0.000000000e+00    0.000000000e+00    0.000000000e+00    0.000000000e+00
       28182500   -4.396616220e-01   -5.837572813e-01    1.678322633e-06    5.013387272e-05    0.000000000e+00    0.000000000e+00    0.000000000e+00    0.000000000e+00
       28185000   -4.418220222e-01   -5.802040696e-01   -9.467029486e-06   -4.666778295e-06    0.000000000e+00    0.000000000e+00    0.000000000e+00    0.000000000e+00
       28187500   -4.437915683e-01   -5.764501691e-01    5.948498074e-05    1.787665315e-05    0.000000000e+00    0.000000000e+00    0.000000000e+00    0.000000000e+00
       28190000   -4.458722770e-01   -5.728054047e-01    7.121039744e-06    2.903138375e-05    0.000000000e+00    0.000000000e+00    0.000000000e+00    0.000000000e+00
       28192500   -4.479145408e-01   -5.690512657e-01    6.620891327e-06    4.101910963e-05    0.000000000e+00    0.000000000e+00    0.000000000e+00    0.000000000e+00
       28195000   -4.498494267e-01   -5.652013421e-01    5.659122689e-05   -2.308104195e-05    0.000000000e+00    0.000000000e+00    0.000000000e+00    0.000000000e+00
       28197500   -4.517865777e-01   -5.615421534e-01    3.901571745e-06    2.706086707e-05    0.000000000e+00    0.000000000e+00    0.000000000e+00    0.000000000e+00
       28200000   -4.536743462e-01   -5.576949120e-01    1.064367279e-05    8.391171832e-06    0.000000000e+00    0.000000000e+00    0.000000000e+00    0.000000000e+00
       28202500   -4.556561112e-01   -5.538957119e-01    2.927729292e-05   -1.370733116e-05    0.000000000e+00    0.000000000e+00    0.000000000e+00    0.000000000e+00
       28205000   -4.574423432e-01   -5.501223207e-01    3.491223652e-06    2.994830356e-05    0.000000000e+00    0.000000000e+00    0.000000000e+00    0.000000000e+00
       28207500   -4.594393671e-01   -5.462012887e-01    2.631298594e-05    2.465688522e-05    0.000000000e+00    0.000000000e+00    0.000000000e+00    0.000000000e+00
       28210000   -4.611626863e-01   -5.424204469e-01   -5.005100320e-05    6.813975051e-05    0.000000000e+00    0.000000000e+00    0.000000000e+00    0.000000000e+00
       28212500   -4.627754986e-01   -5.386632681e-01    1.085626354e-04    2.465852776e-05    0.000000000e+00    0.000000000e+00    0.000000000e+00    0.000000000e+00
       28215000   -4.647458196e-01   -5.345924497e-01    1.391962269e-05   -1.582406298e-06    0.000000000e+00    0.000000000e+00    0.000000000e+00    0.000000000e+00
       28217500   -4.664091468e-01   -5.307336450e-01    9.804822184e-06    1.630289603e-06    0.000000000e+00    0.000000000e+00    0.000000000e+00    0.000000000e+00
       28220000   -4.682648778e-01   -5.267565846e-01    4.889299089e-05    5.178725587e-06    0.000000000e+00    0.000000000e+00    0.000000000e+00    0.000000000e+00
       28222500   -4.700252414e-01   -5.229556561e-01   -2.639643571e-05    2.827380376e-05    0.000000000e+00    0.000000000e+00    0.000000000e+00    0.000000000e+00
       28225000   -4.714768231e-01   -5.189917684e-01    1.379724381e-05    3.386348908e-05    0.000000000e+00    0.000000000e+00    0.000000000e+00    0.000000000e+00
       28227500   -4.732773602e-01   -5.150396228e-01    6.060716987e-05    4.203955905e-05    0.000000000e+00    0.000000000e+00    0.000000000e+00    0.000000000e+00
       28230000   -4.749102890e-01   -5.109801888e-01    7.292466762e-05    2.877292718e-05    0.000000000e+00    0.000000000e+00    0.000000000e+00    0.000000000e+00
       28232500   -4.764606059e-01   -5.069670081e-01    5.603563841e-05    3.907714927e-05    0.000000000e+00    0.000000000e+00    0.000000000e+00    0.000000000e+00
       28235000   -4.780098498e-01   -5.029424429e-01    5.227731890e-05    1.943242387e-05    0.000000000e+00    0.000000000e+00    0.000000000e+00    0.000000000e+00
       28237500   -4.796166122e-01   -4.988216162e-01    5.978790068e-05   -7.020789781e-06    0.000000000e+00    0.000000000e+00    0.000000000e+00    0.000000000e+00
       28240000   -4.810084105e-01   -4.947245121e-01   -4.698173143e-05    4.126551357e-05    0.000000000e+00    0.000000000e+00    0.000000000e+00    0.000000000e+00
       28242500   -4.826151133e-01   -4.908028841e-01    7.318428834e-05    1.684509152e-05    0.000000000e+00    0.000000000e+00    0.000000000e+00    0.000000000e+00
       28245000   -4.839557707e-01   -4.865351915e-01    4.240690487e-06    1.304248235e-05    0.000000000e+00    0.000000000e+00    0.000000000e+00    0.000000000e+00
       28247500   -4.853802621e-01   -4.824724197e-01    3.793090582e-05   -2.978252382e-07    0.000000000e+00    0.000000000e+00    0.000000000e+00    0.000000000e+00
       28250000   -4.867986441e-01   -4.784169793e-01   -1.840799086e-05    6.916776783e-06    0.000000000e+00    0.000000000e+00    0.000000000e+00    0.000000000e+00
       28252500   -4.881796241e-01   -4.742114842e-01    1.628031896e-05    3.377247776e-05    0.000000000e+00    0.000000000e+00    0.000000000e+00    0.000000000e+00
       28255000   -4.894864857e-01   -4.700794220e-01   -7.293903764e-06    2.117651638e-05    0.000000000e+00    0.000000000e+00    0.000000000e+00    0.000000000e+00
       28257500   -4.907346666e-01   -4.659622014e-01   -8.115716810e-06    2.420979035e-05    0.000000000e+00    0.000000000e+00    0.000000000e+00    0.000000000e+00
       28260000   -4.920363724e-01   -4.616455436e-01   -7.535021268e-06   -3.249385918e-05    0.000000000e+00    0.000000000e+00    0.000000000e+00    0.000000000e+00
       28262500   -4.932760596e-01   -4.575912058e-01    8.175105177e-05    3.466395356e-05    0.000000000e+00    0.000000000e+00    0.000000000e+00    0.000000000e+00
       28265000   -4.944565892e-01   -4.533207119e-01    6.774896610e-05    2.865946408e-05    0.000000000e+00    0.000000000e+00    0.000000000e+00    0.000000000e+00
       28267500   -4.956993163e-01   -4.490467310e-01    1.866419188e-05   -6.239849881e-07    0.000000000e+00    0.000000000e+00    0.000000000e+00    0.000000000e+00
       28270000   -4.966457486e-01   -4.449026585e-01    2.768572995e-05    2.899605897e-05    0.000000000e+00    0.000000000e+00    0.000000000e+00    0.000000000e+00
       28272500   -4.978998899e-01   -4.407635331e-01    1.409244851e-05    3.510409806e-05    0.000000000e+00    0.000000000e+00    0.000000000e+00    0.000000000e+00
       28275000   -4.988809526e-01   -4.364106059e-01    1.687767144e-05    5.525198958e-06    0.000000000e+00    0.000000000e+00    0.000000000e+00    0.000000000e+00
       28277500   -4.999667406e-01   -4.322029650e-01    1.019880656e-04    2.238633351e-05    0.000000000e+00    0.000000000e+00    0.000000000e+00    0.000000000e+00
       28280000   -5.010529160e-01   -4.279158413e-01    1.071512634e-05    8.423576219e-05    0.000000000e+00    0.000000000e+00    0.000000000e+00    0.000000000e+00
       28282500   -5.018419623e-01   -4.237167835e-01   -2.618295184e-06    3.880499935e-05    0.000000000e+00    0.000000000e+00    0.000000000e+00    0.000000000e+00
       28285000   -5.029525757e-01   -4.192857444e-01    2.614880395e-05    3.688743891e-05    0.000000000e+00    0.000000000e+00    0.000000000e+00    0.000000000e+00
       28287500   -5.038690567e-01   -4.150503576e-01    2.760273856e-05    5.238101949e-05    0.000000000e+00    0.000000000e+00    0.000000000e+00    0.000000000e+00
       28290000   -5.047029853e-01   -4.107409418e-01    6.490928354e-05   -1.280262268e-06    0.000000000e+00    0.000000000e+00    0.000000000e+00    0.000000000e+00
