! NanoVNA-App by OneOfEleven et al v1.1.209 (+OD18) 
! Date: 2025-07-14 21:08:00
! Start: 27MHz Stop: 30MHz Points: 801
! S-Parameter data: F S11
# Hz S RI R 50
!     Frequency           S11_Real           S11_Imag
       27000000    5.694612265e-01   -7.797226310e-01
       27003750    5.679426789e-01   -7.808543444e-01
       27007500    5.665886998e-01   -7.824026346e-01
       27011250    5.647055507e-01   -7.836176157e-01
       27015000    5.631172657e-01   -7.847580910e-01
       27018750    5.612993836e-01   -7.860149741e-01
       27022500    5.596666932e-01   -7.871999145e-01
       27026250    5.580677390e-01   -7.885545492e-01
       27030000    5.562539697e-01   -7.897552848e-01
       27033750    5.546238422e-01   -7.910742164e-01
       27037500    5.528343320e-01   -7.921752930e-01
       27041250    5.512346625e-01   -7.935365438e-01
       27045000    5.493263602e-01   -7.946911454e-01
       27048750    5.476695299e-01   -7.960292697e-01
       27052500    5.461032391e-01   -7.972771525e-01
       27056250    5.441493392e-01   -7.984876037e-01
       27060000    5.424087644e-01   -7.998789549e-01
       27063750    5.405735373e-01   -8.008847833e-01
       27067500    5.389104486e-01   -8.021334410e-01
       27071250    5.372612476e-01   -8.033343554e-01
       27075000    5.355117321e-01   -8.043491244e-01
       27078750    5.336378217e-01   -8.057864904e-01
       27082500    5.320555568e-01   -8.071221709e-01
       27086250    5.300053954e-01   -8.081982136e-01
       27090000    5.279323459e-01   -8.093880415e-01
       27093750    5.261141658e-01   -8.104777932e-01
       27097500    5.244058967e-01   -8.118095994e-01
       27101250    5.224733353e-01   -8.128977418e-01
       27105000    5.207334161e-01   -8.142623305e-01
       27108750    5.188434124e-01   -8.153350353e-01
       27112500    5.171409249e-01   -8.164111376e-01
       27116250    5.148378015e-01   -8.176630735e-01
       27120000    5.129100084e-01   -8.187653422e-01
       27123750    5.111657381e-01   -8.198770881e-01
       27127500    5.092949271e-01   -8.211061358e-01
       27131250    5.074182153e-01   -8.222268224e-01
       27135000    5.055781603e-01   -8.232765794e-01
       27138750    5.035222769e-01   -8.246591687e-01
       27142500    5.016481280e-01   -8.255452514e-01
       27146250    4.996751249e-01   -8.268167973e-01
       27150000    4.975786805e-01   -8.280633688e-01
       27153750    4.956962764e-01   -8.289695978e-01
       27157500    4.936364889e-01   -8.301700354e-01
       27161250    4.916909337e-01   -8.314992189e-01
       27165000    4.896417558e-01   -8.323698640e-01
       27168750    4.876464605e-01   -8.336084485e-01
       27172500    4.856231809e-01   -8.347395062e-01
       27176250    4.837053716e-01   -8.358479738e-01
       27180000    4.816916883e-01   -8.370524645e-01
       27183750    4.796162844e-01   -8.380581737e-01
       27187500    4.775284529e-01   -8.392417431e-01
       27191250    4.752960205e-01   -8.402715325e-01
       27195000    4.736865759e-01   -8.415108323e-01
       27198750    4.715729356e-01   -8.425766826e-01
       27202500    4.697112441e-01   -8.438344002e-01
       27206250    4.679772854e-01   -8.449096084e-01
       27210000    4.661444724e-01   -8.462954164e-01
       27213750    4.642661214e-01   -8.473923206e-01
       27217500    4.627430439e-01   -8.486243486e-01
       27221250    4.608564377e-01   -8.497132063e-01
       27225000    4.590524435e-01   -8.508346081e-01
       27228750    4.571418762e-01   -8.517697453e-01
       27232500    4.547149539e-01   -8.526369929e-01
       27236250    4.531133473e-01   -8.538396358e-01
       27240000    4.509586394e-01   -8.548353314e-01
       27243750    4.486026764e-01   -8.554658294e-01
       27247500    4.466426671e-01   -8.565862775e-01
       27251250    4.443400502e-01   -8.578180671e-01
       27255000    4.422492385e-01   -8.587481976e-01
       27258750    4.399481416e-01   -8.597219586e-01
       27262500    4.377956092e-01   -8.609288931e-01
       27266250    4.356640577e-01   -8.619942069e-01
       27270000    4.333138168e-01   -8.628115654e-01
       27273750    4.309875369e-01   -8.639807701e-01
       27277500    4.288644791e-01   -8.648282886e-01
       27281250    4.264303446e-01   -8.655860424e-01
       27285000    4.242244661e-01   -8.669855595e-01
       27288750    4.217888713e-01   -8.678566217e-01
       27292500    4.193295836e-01   -8.689721227e-01
       27296250    4.172815084e-01   -8.697965145e-01
       27300000    4.146345556e-01   -8.708154559e-01
       27303750    4.121412635e-01   -8.718652129e-01
       27307500    4.099419117e-01   -8.728878498e-01
       27311250    4.074033499e-01   -8.738278151e-01
       27315000    4.050366580e-01   -8.748835921e-01
       27318750    4.023474455e-01   -8.759344816e-01
       27322500    4.001777768e-01   -8.768724203e-01
       27326250    3.976880014e-01   -8.779398203e-01
       27330000    3.950376213e-01   -8.786975741e-01
       27333750    3.925772905e-01   -8.795511723e-01
       27337500    3.901572227e-01   -8.810722232e-01
       27341250    3.875862062e-01   -8.816190362e-01
       27345000    3.851023614e-01   -8.826754689e-01
       27348750    3.824392557e-01   -8.835989237e-01
       27352500    3.799600601e-01   -8.845384121e-01
       27356250    3.774319291e-01   -8.855610490e-01
       27360000    3.747867942e-01   -8.864833117e-01
       27363750    3.721959889e-01   -8.873504996e-01
       27367500    3.695595264e-01   -8.884912133e-01
       27371250    3.667739034e-01   -8.893563747e-01
       27375000    3.640296757e-01   -8.902626634e-01
       27378750    3.613530397e-01   -8.914112449e-01
       27382500    3.586346805e-01   -8.921555281e-01
       27386250    3.559242487e-01   -8.931709528e-01
       27390000    3.529996276e-01   -8.941639066e-01
       27393750    3.503066301e-01   -8.949766159e-01
       27397500    3.474152684e-01   -8.959684968e-01
       27401250    3.446649909e-01   -8.967947364e-01
       27405000    3.419721127e-01   -8.978236914e-01
       27408750    3.390023410e-01   -8.986557722e-01
       27412500    3.360285759e-01   -8.997985721e-01
       27416250    3.330656886e-01   -9.003819823e-01
       27420000    3.300657272e-01   -9.015606642e-01
       27423750    3.272062540e-01   -9.027775526e-01
       27427500    3.240072429e-01   -9.034622312e-01
       27431250    3.211194277e-01   -9.044640660e-01
       27435000    3.180257678e-01   -9.050692916e-01
       27438750    3.146788776e-01   -9.061618447e-01
       27442500    3.116030395e-01   -9.070609212e-01
       27446250    3.083435297e-01   -9.078032374e-01
       27450000    3.050884902e-01   -9.087132812e-01
       27453750    3.018499315e-01   -9.096658826e-01
       27457500    2.984578311e-01   -9.104225636e-01
       27461250    2.951091528e-01   -9.114118218e-01
       27465000    2.916345298e-01   -9.121474028e-01
       27468750    2.879927158e-01   -9.127345085e-01
       27472500    2.843079865e-01   -9.135146737e-01
       27476250    2.807867527e-01   -9.141945243e-01
       27480000    2.770111263e-01   -9.146963358e-01
       27483750    2.734068036e-01   -9.154288173e-01
       27487500    2.694649994e-01   -9.157707691e-01
       27491250    2.657164633e-01   -9.160967469e-01
       27495000    2.615830898e-01   -9.165862799e-01
       27498750    2.576710880e-01   -9.168478847e-01
       27502500    2.533573210e-01   -9.170309305e-01
       27506250    2.494406551e-01   -9.171025753e-01
       27510000    2.454188615e-01   -9.170846343e-01
       27513750    2.414324433e-01   -9.166424870e-01
       27517500    2.374760211e-01   -9.164468646e-01
       27521250    2.335809767e-01   -9.157489538e-01
       27525000    2.297918648e-01   -9.152607918e-01
       27528750    2.262893617e-01   -9.144416451e-01
       27532500    2.225499600e-01   -9.139864445e-01
       27536250    2.193652987e-01   -9.132747054e-01
       27540000    2.158449441e-01   -9.123650193e-01
       27543750    2.124150395e-01   -9.116150141e-01
       27547500    2.096670866e-01   -9.109823108e-01
       27551250    2.067333013e-01   -9.101343751e-01
       27555000    2.038558722e-01   -9.095519185e-01
       27558750    2.011574954e-01   -9.088183045e-01
       27562500    1.982701272e-01   -9.082929492e-01
       27566250    1.953978390e-01   -9.080386162e-01
       27570000    1.928783506e-01   -9.075773954e-01
       27573750    1.902555823e-01   -9.071995020e-01
       27577500    1.872643828e-01   -9.071463346e-01
       27581250    1.848057210e-01   -9.068706036e-01
       27585000    1.821282506e-01   -9.067046642e-01
       27588750    1.792190373e-01   -9.066761732e-01
       27592500    1.766741872e-01   -9.066885710e-01
       27596250    1.735830158e-01   -9.065706134e-01
       27600000    1.708875895e-01   -9.066399336e-01
       27603750    1.678907126e-01   -9.065697193e-01
       27607500    1.649862528e-01   -9.065207243e-01
       27611250    1.620284915e-01   -9.067924619e-01
       27615000    1.591537744e-01   -9.068687558e-01
       27618750    1.559967399e-01   -9.068623185e-01
       27622500    1.528882086e-01   -9.069223404e-01
       27626250    1.497635245e-01   -9.068808556e-01
       27630000    1.466616988e-01   -9.069187045e-01
       27633750    1.434055120e-01   -9.069982767e-01
       27637500    1.402847916e-01   -9.073241353e-01
       27641250    1.368499100e-01   -9.068863392e-01
       27645000    1.337477565e-01   -9.071503878e-01
       27648750    1.304289401e-01   -9.069322944e-01
       27652500    1.269546896e-01   -9.070048332e-01
       27656250    1.236520186e-01   -9.070121050e-01
       27660000    1.202798113e-01   -9.069764018e-01
       27663750    1.167077199e-01   -9.070170522e-01
       27667500    1.134006456e-01   -9.069006443e-01
       27671250    1.099296138e-01   -9.066451788e-01
       27675000    1.065600291e-01   -9.066056609e-01
       27678750    1.030497774e-01   -9.066172838e-01
       27682500    9.955428541e-02   -9.064384699e-01
       27686250    9.602934122e-02   -9.061867595e-01
       27690000    9.242507070e-02   -9.058400393e-01
       27693750    8.870661259e-02   -9.056657553e-01
       27697500    8.502762020e-02   -9.054170251e-01
       27701250    8.165403455e-02   -9.052957892e-01
       27705000    7.780391723e-02   -9.050111175e-01
       27708750    7.429861277e-02   -9.045720696e-01
       27712500    7.060903311e-02   -9.044852853e-01
       27716250    6.689456105e-02   -9.039391875e-01
       27720000    6.305616349e-02   -9.038684368e-01
       27723750    5.952487513e-02   -9.032457471e-01
       27727500    5.570630729e-02   -9.026339054e-01
       27731250    5.204672366e-02   -9.025215507e-01
       27735000    4.822966829e-02   -9.019978642e-01
       27738750    4.404118285e-02   -9.013251066e-01
       27742500    4.051325843e-02   -9.009541273e-01
       27746250    3.670985624e-02   -9.003171921e-01
       27750000    3.282441944e-02   -8.996627927e-01
       27753750    2.884123102e-02   -8.990809917e-01
       27757500    2.492749877e-02   -8.984609246e-01
       27761250    2.096833475e-02   -8.979368806e-01
       27765000    1.715098694e-02   -8.972527981e-01
       27768750    1.346482709e-02   -8.965262771e-01
       27772500    9.246179834e-03   -8.957754374e-01
       27776250    5.516049452e-03   -8.948226571e-01
       27780000    1.393954852e-03   -8.942220211e-01
       27783750   -2.745910781e-03   -8.934301734e-01
       27787500   -6.733526476e-03   -8.924231529e-01
       27791250   -1.067913603e-02   -8.916780949e-01
       27795000   -1.473314688e-02   -8.907880783e-01
       27798750   -1.847336814e-02   -8.900457025e-01
       27802500   -2.281904221e-02   -8.887306452e-01
       27806250   -2.689549886e-02   -8.878644705e-01
       27810000   -3.085709363e-02   -8.868494034e-01
       27813750   -3.501228243e-02   -8.857097626e-01
       27817500   -3.928917646e-02   -8.848542571e-01
       27821250   -4.341326281e-02   -8.835663199e-01
       27825000   -4.756948352e-02   -8.824380040e-01
       27828750   -5.158670992e-02   -8.813182116e-01
       27832500   -5.579400808e-02   -8.801741600e-01
       27836250   -5.994218588e-02   -8.789176345e-01
       27840000   -6.384978443e-02   -8.776426315e-01
       27843750   -6.836191565e-02   -8.763108850e-01
       27847500   -7.246278971e-02   -8.749312758e-01
       27851250   -7.676459849e-02   -8.735294342e-01
       27855000   -8.102966100e-02   -8.721628189e-01
       27858750   -8.519153297e-02   -8.706519604e-01
       27862500   -8.958779275e-02   -8.693650365e-01
       27866250   -9.389640391e-02   -8.675825000e-01
       27870000   -9.801985323e-02   -8.663148284e-01
       27873750   -1.025818214e-01   -8.645329475e-01
       27877500   -1.065677777e-01   -8.629026413e-01
       27881250   -1.110451072e-01   -8.613404036e-01
       27885000   -1.152810752e-01   -8.595452309e-01
       27888750   -1.196028143e-01   -8.577160835e-01
       27892500   -1.238818988e-01   -8.559619188e-01
       27896250   -1.281528473e-01   -8.544230461e-01
       27900000   -1.325586438e-01   -8.525232673e-01
       27903750   -1.369392425e-01   -8.504086137e-01
       27907500   -1.412692219e-01   -8.486739397e-01
       27911250   -1.456901133e-01   -8.466252089e-01
       27915000   -1.499599814e-01   -8.445972800e-01
       27918750   -1.542247385e-01   -8.425896764e-01
       27922500   -1.588106006e-01   -8.405920863e-01
       27926250   -1.630450338e-01   -8.383517861e-01
       27930000   -1.676777750e-01   -8.362829089e-01
       27933750   -1.717308462e-01   -8.339189887e-01
       27937500   -1.763305664e-01   -8.317581415e-01
       27941250   -1.806069762e-01   -8.294091225e-01
       27945000   -1.848486811e-01   -8.270893097e-01
       27948750   -1.892068535e-01   -8.247642517e-01
       27952500   -1.937186867e-01   -8.222977519e-01
       27956250   -1.982580274e-01   -8.199412227e-01
       27960000   -2.025046200e-01   -8.173231483e-01
       27963750   -2.068995833e-01   -8.146592379e-01
       27967500   -2.113100588e-01   -8.121238351e-01
       27971250   -2.158199400e-01   -8.094307780e-01
       27975000   -2.200270444e-01   -8.068521619e-01
       27978750   -2.244800031e-01   -8.042471409e-01
       27982500   -2.288420945e-01   -8.012854457e-01
       27986250   -2.332933247e-01   -7.986829877e-01
       27990000   -2.375286072e-01   -7.957174182e-01
       27993750   -2.419612706e-01   -7.927026749e-01
       27997500   -2.463462204e-01   -7.897595763e-01
       28001250   -2.506299913e-01   -7.867959142e-01
       28005000   -2.550407946e-01   -7.837347984e-01
       28008750   -2.593487203e-01   -7.806173563e-01
       28012500   -2.635907829e-01   -7.774641514e-01
       28016250   -2.680672109e-01   -7.741819620e-01
       28020000   -2.724408805e-01   -7.709308863e-01
       28023750   -2.765995562e-01   -7.677819133e-01
       28027500   -2.810744047e-01   -7.644748688e-01
       28031250   -2.852894068e-01   -7.610231638e-01
       28035000   -2.895365655e-01   -7.574783564e-01
       28038750   -2.938520908e-01   -7.539145947e-01
       28042500   -2.981082499e-01   -7.503935099e-01
       28046250   -3.023688197e-01   -7.469063997e-01
       28050000   -3.065261245e-01   -7.431852818e-01
       28053750   -3.106847703e-01   -7.394324541e-01
       28057500   -3.149157166e-01   -7.358089089e-01
       28061250   -3.191289306e-01   -7.318614125e-01
       28065000   -3.233436942e-01   -7.281002402e-01
       28068750   -3.274607360e-01   -7.242444754e-01
       28072500   -3.317556679e-01   -7.202792168e-01
       28076250   -3.356761038e-01   -7.161634564e-01
       28080000   -3.397938609e-01   -7.120929360e-01
       28083750   -3.437828720e-01   -7.080500722e-01
       28087500   -3.479050696e-01   -7.038293481e-01
       28091250   -3.519201875e-01   -6.997578740e-01
       28095000   -3.559666872e-01   -6.953775883e-01
       28098750   -3.598059416e-01   -6.910625100e-01
       28102500   -3.637879193e-01   -6.866502762e-01
       28106250   -3.676035404e-01   -6.822348833e-01
       28110000   -3.714858294e-01   -6.778370738e-01
       28113750   -3.753341734e-01   -6.732568741e-01
       28117500   -3.792932928e-01   -6.683984399e-01
       28121250   -3.830285072e-01   -6.639722586e-01
       28125000   -3.867144883e-01   -6.592862606e-01
       28128750   -3.904399872e-01   -6.545246840e-01
       28132500   -3.942177296e-01   -6.496794820e-01
       28136250   -3.977071047e-01   -6.448886395e-01
       28140000   -4.013387561e-01   -6.400091648e-01
       28143750   -4.049525857e-01   -6.350268126e-01
       28147500   -4.084538221e-01   -6.298526525e-01
       28151250   -4.118848145e-01   -6.249104142e-01
       28155000   -4.154709578e-01   -6.199492216e-01
       28158750   -4.187285006e-01   -6.146985292e-01
       28162500   -4.222418964e-01   -6.095070243e-01
       28166250   -4.254983664e-01   -6.042026281e-01
       28170000   -4.288333058e-01   -5.990141630e-01
       28173750   -4.320481420e-01   -5.936281085e-01
       28177500   -4.352462888e-01   -5.882334113e-01
       28181250   -4.383597672e-01   -5.827088952e-01
       28185000   -4.415050149e-01   -5.772827864e-01
       28188750   -4.444749057e-01   -5.717334151e-01
       28192500   -4.474206567e-01   -5.661936402e-01
       28196250   -4.504559636e-01   -5.605471730e-01
       28200000   -4.532378614e-01   -5.547974706e-01
       28203750   -4.559985101e-01   -5.491759181e-01
       28207500   -4.589783251e-01   -5.432720780e-01
       28211250   -4.615567625e-01   -5.375962853e-01
       28215000   -4.642630219e-01   -5.317481756e-01
       28218750   -4.668897390e-01   -5.259364247e-01
       28222500   -4.693116844e-01   -5.200619698e-01
       28226250   -4.716922343e-01   -5.140697360e-01
       28230000   -4.742502272e-01   -5.080839396e-01
       28233750   -4.766070247e-01   -5.019851327e-01
       28237500   -4.789001644e-01   -4.960167110e-01
       28241250   -4.810338914e-01   -4.898746312e-01
       28245000   -4.832132459e-01   -4.837855101e-01
       28248750   -4.853720069e-01   -4.777073860e-01
       28252500   -4.875186682e-01   -4.714545012e-01
       28256250   -4.892347753e-01   -4.652638733e-01
       28260000   -4.912493229e-01   -4.589627385e-01
       28263750   -4.929778278e-01   -4.528056979e-01
       28267500   -4.946519136e-01   -4.463838935e-01
       28271250   -4.963512719e-01   -4.401185215e-01
       28275000   -4.979849756e-01   -4.336675704e-01
       28278750   -4.995706975e-01   -4.274794757e-01
       28282500   -5.008603334e-01   -4.209004939e-01
       28286250   -5.022844076e-01   -4.145839512e-01
       28290000   -5.034576058e-01   -4.080805779e-01
       28293750   -5.048478246e-01   -4.017005563e-01
       28297500   -5.061558485e-01   -3.951884210e-01
       28301250   -5.070788860e-01   -3.887699842e-01
       28305000   -5.081297755e-01   -3.822935820e-01
       28308750   -5.089295506e-01   -3.757505119e-01
       28312500   -5.098194480e-01   -3.693112433e-01
       28316250   -5.106530190e-01   -3.627201021e-01
       28320000   -5.113167167e-01   -3.563036621e-01
       28323750   -5.118664503e-01   -3.496610522e-01
       28327500   -5.123378634e-01   -3.432274759e-01
       28331250   -5.128597617e-01   -3.366681337e-01
       28335000   -5.132119060e-01   -3.301264346e-01
       28338750   -5.135532618e-01   -3.234618902e-01
       28342500   -5.137509704e-01   -3.170898259e-01
       28346250   -5.138645172e-01   -3.104799092e-01
       28350000   -5.140504837e-01   -3.041263521e-01
       28353750   -5.139042139e-01   -2.976153195e-01
       28357500   -5.138295293e-01   -2.911044061e-01
       28361250   -5.136425495e-01   -2.846550345e-01
       28365000   -5.133966804e-01   -2.780995071e-01
       28368750   -5.130397677e-01   -2.717501521e-01
