! NanoVNA-App by OneOfEleven et al v1.1.209 (+OD18) 
! Date: 2025-07-14 21:08:42
! Start: 28MHz Stop: 30MHz Points: 801
! S-Parameter data: F S11
# Hz S RI R 50
!     Frequency           S11_Real           S11_Imag
       28000000   -2.487638444e-01   -7.899633646e-01
       28002500   -2.516477406e-01   -7.878961563e-01
       28005000   -2.546099126e-01   -7.857881188e-01
       28007500   -2.573064268e-01   -7.838625312e-01
       28010000   -2.604664564e-01   -7.817298174e-01
       28012500   -2.632221580e-01   -7.796756029e-01
       28015000   -2.660258710e-01   -7.774401903e-01
       28017500   -2.690798044e-01   -7.753685117e-01
       28020000   -2.719357014e-01   -7.733746767e-01
       28022500   -2.747850716e-01   -7.711169720e-01
       28025000   -2.775842547e-01   -7.689347863e-01
       28027500   -2.806620598e-01   -7.666535974e-01
       28030000   -2.833997607e-01   -7.643957734e-01
       28032500   -2.863644361e-01   -7.619552612e-01
       28035000   -2.890702486e-01   -7.600137591e-01
       28037500   -2.919457257e-01   -7.574790120e-01
       28040000   -2.947754860e-01   -7.551275492e-01
       28042500   -2.978296876e-01   -7.526664138e-01
       28045000   -3.005049229e-01   -7.502397299e-01
       28047500   -3.034200370e-01   -7.479150891e-01
       28050000   -3.061999381e-01   -7.454324961e-01
       28052500   -3.089331985e-01   -7.428265810e-01
       28055000   -3.117920756e-01   -7.401980758e-01
       28057500   -3.146486282e-01   -7.378930449e-01
       28060000   -3.173315227e-01   -7.352719307e-01
       28062500   -3.202649057e-01   -7.327816486e-01
       28065000   -3.230426908e-01   -7.302044034e-01
       28067500   -3.257164657e-01   -7.275669575e-01
       28070000   -3.285676241e-01   -7.249324322e-01
       28072500   -3.311884999e-01   -7.222114801e-01
       28075000   -3.340383768e-01   -7.196692824e-01
       28077500   -3.365502357e-01   -7.169641256e-01
       28080000   -3.392909169e-01   -7.143238783e-01
       28082500   -3.421402872e-01   -7.116150260e-01
       28085000   -3.447712362e-01   -7.089143991e-01
       28087500   -3.473237455e-01   -7.060403228e-01
       28090000   -3.502866626e-01   -7.031589150e-01
       28092500   -3.525964916e-01   -7.006382346e-01
       28095000   -3.555420935e-01   -6.977834702e-01
       28097500   -3.581025004e-01   -6.948440075e-01
       28100000   -3.607284725e-01   -6.919490695e-01
       28102500   -3.633332551e-01   -6.889866590e-01
       28105000   -3.659588099e-01   -6.861490011e-01
       28107500   -3.685778975e-01   -6.831986904e-01
       28110000   -3.710670173e-01   -6.801528335e-01
       28112500   -3.735766113e-01   -6.772726774e-01
       28115000   -3.762282133e-01   -6.741406918e-01
       28117500   -3.787204027e-01   -6.712050438e-01
       28120000   -3.812377453e-01   -6.680670381e-01
       28122500   -3.838489354e-01   -6.650207639e-01
       28125000   -3.862436116e-01   -6.618472934e-01
       28127500   -3.886154294e-01   -6.589175463e-01
       28130000   -3.910732865e-01   -6.554220319e-01
       28132500   -3.934946060e-01   -6.524227858e-01
       28135000   -3.958854973e-01   -6.493840814e-01
       28137500   -3.982196450e-01   -6.460854411e-01
       28140000   -4.005365372e-01   -6.427905560e-01
       28142500   -4.026539922e-01   -6.395233870e-01
       28145000   -4.047231972e-01   -6.363006830e-01
       28147500   -4.071590304e-01   -6.329219341e-01
       28150000   -4.095424116e-01   -6.295958161e-01
       28152500   -4.119339883e-01   -6.261700392e-01
       28155000   -4.140619338e-01   -6.227692962e-01
       28157500   -4.165171087e-01   -6.194583178e-01
       28160000   -4.186206460e-01   -6.158396602e-01
       28162500   -4.209636450e-01   -6.123319268e-01
       28165000   -4.232060611e-01   -6.088015437e-01
       28167500   -4.254198372e-01   -6.053231955e-01
       28170000   -4.275541604e-01   -6.017187238e-01
       28172500   -4.297772944e-01   -5.981885791e-01
       28175000   -4.319117665e-01   -5.943934321e-01
       28177500   -4.340219498e-01   -5.907331109e-01
       28180000   -4.362630844e-01   -5.871716738e-01
       28182500   -4.384827316e-01   -5.835039020e-01
       28185000   -4.403216839e-01   -5.799913406e-01
       28187500   -4.424580038e-01   -5.762302876e-01
       28190000   -4.444665909e-01   -5.726469755e-01
       28192500   -4.464745522e-01   -5.686667562e-01
       28195000   -4.484056234e-01   -5.651150942e-01
       28197500   -4.503956139e-01   -5.612862110e-01
       28200000   -4.524306953e-01   -5.573673844e-01
       28202500   -4.542694688e-01   -5.536118746e-01
       28205000   -4.562006891e-01   -5.499338508e-01
       28207500   -4.580501914e-01   -5.459415913e-01
       28210000   -4.599470198e-01   -5.423142910e-01
       28212500   -4.617275596e-01   -5.384046435e-01
       28215000   -4.635619521e-01   -5.344501734e-01
       28217500   -4.652560353e-01   -5.306615233e-01
       28220000   -4.669710398e-01   -5.266443491e-01
       28222500   -4.687778950e-01   -5.228579044e-01
       28225000   -4.703603387e-01   -5.188832283e-01
       28227500   -4.720115066e-01   -5.148748159e-01
       28230000   -4.737572372e-01   -5.108008385e-01
       28232500   -4.753291607e-01   -5.068838596e-01
       28235000   -4.768431783e-01   -5.028058290e-01
       28237500   -4.784784317e-01   -4.988111854e-01
       28240000   -4.800168574e-01   -4.947564304e-01
       28242500   -4.813953936e-01   -4.906947911e-01
       28245000   -4.829410911e-01   -4.866001010e-01
       28247500   -4.842200279e-01   -4.823799431e-01
       28250000   -4.857567549e-01   -4.784335196e-01
       28252500   -4.870488644e-01   -4.741865695e-01
       28255000   -4.884341061e-01   -4.698543847e-01
       28257500   -4.897017479e-01   -4.657781422e-01
       28260000   -4.909419119e-01   -4.614765942e-01
       28262500   -4.922062457e-01   -4.572773278e-01
       28265000   -4.933217168e-01   -4.532493949e-01
       28267500   -4.944581985e-01   -4.489603043e-01
       28270000   -4.956465960e-01   -4.446587563e-01
       28272500   -4.968258440e-01   -4.404787719e-01
       28275000   -4.979445338e-01   -4.363055825e-01
       28277500   -4.989251494e-01   -4.320588112e-01
       28280000   -4.999761581e-01   -4.275633097e-01
       28282500   -5.009368062e-01   -4.234912395e-01
       28285000   -5.017738342e-01   -4.190818369e-01
       28287500   -5.028561354e-01   -4.149105847e-01
       28290000   -5.036825538e-01   -4.104276001e-01
       28292500   -5.045750141e-01   -4.062752128e-01
       28295000   -5.054716468e-01   -4.020614922e-01
       28297500   -5.061855316e-01   -3.977749646e-01
       28300000   -5.069013834e-01   -3.933658898e-01
       28302500   -5.076898932e-01   -3.890303075e-01
       28305000   -5.083484054e-01   -3.847660720e-01
       28307500   -5.091820955e-01   -3.804370463e-01
       28310000   -5.097954869e-01   -3.760649264e-01
       28312500   -5.103142262e-01   -3.718168139e-01
       28315000   -5.109477043e-01   -3.674512208e-01
       28317500   -5.113552809e-01   -3.631399274e-01
       28320000   -5.119007230e-01   -3.585666120e-01
       28322500   -5.123349428e-01   -3.543815613e-01
       28325000   -5.127496123e-01   -3.500507772e-01
       28327500   -5.131042600e-01   -3.456499577e-01
       28330000   -5.133759975e-01   -3.412673175e-01
       28332500   -5.137497783e-01   -3.369532526e-01
       28335000   -5.141084790e-01   -3.325929642e-01
       28337500   -5.142696500e-01   -3.283268809e-01
       28340000   -5.144509673e-01   -3.238524795e-01
       28342500   -5.145795941e-01   -3.196099699e-01
       28345000   -5.146202445e-01   -3.151760101e-01
       28347500   -5.147682428e-01   -3.107484281e-01
       28350000   -5.148921013e-01   -3.064279556e-01
       28352500   -5.149344206e-01   -3.021075726e-01
       28355000   -5.149078965e-01   -2.977003455e-01
       28357500   -5.148121119e-01   -2.934556007e-01
       28360000   -5.147387981e-01   -2.891210020e-01
       28362500   -5.146511197e-01   -2.847823203e-01
       28365000   -5.145017505e-01   -2.804676294e-01
       28367500   -5.142868161e-01   -2.761808932e-01
       28370000   -5.140861869e-01   -2.719224989e-01
       28372500   -5.137168765e-01   -2.675624788e-01
       28375000   -5.133450627e-01   -2.633823454e-01
       28377500   -5.132166743e-01   -2.589559257e-01
       28380000   -5.127472281e-01   -2.546263039e-01
       28382500   -5.123840570e-01   -2.503643930e-01
       28385000   -5.119671822e-01   -2.462446988e-01
       28387500   -5.113752484e-01   -2.420192510e-01
       28390000   -5.109769702e-01   -2.378575802e-01
       28392500   -5.104932785e-01   -2.336686403e-01
       28395000   -5.098879337e-01   -2.293884903e-01
       28397500   -5.092782378e-01   -2.251932323e-01
       28400000   -5.086702108e-01   -2.210281342e-01
       28402500   -5.080039501e-01   -2.169807404e-01
       28405000   -5.073537827e-01   -2.126937211e-01
       28407500   -5.066018105e-01   -2.087310851e-01
       28410000   -5.058742166e-01   -2.045928836e-01
       28412500   -5.050606728e-01   -2.005351931e-01
       28415000   -5.042251348e-01   -1.964349300e-01
       28417500   -5.034774542e-01   -1.923235357e-01
       28420000   -5.024839640e-01   -1.883788854e-01
       28422500   -5.016364455e-01   -1.844339669e-01
       28425000   -5.007171035e-01   -1.803665012e-01
       28427500   -4.998129904e-01   -1.762891710e-01
       28430000   -4.987899065e-01   -1.724493504e-01
       28432500   -4.978263378e-01   -1.686113179e-01
       28435000   -4.968490303e-01   -1.646777242e-01
       28437500   -4.957751930e-01   -1.608374119e-01
       28440000   -4.946267605e-01   -1.569405496e-01
       28442500   -4.934918284e-01   -1.529952288e-01
       28445000   -4.922096729e-01   -1.491377503e-01
       28447500   -4.912154675e-01   -1.454430968e-01
       28450000   -4.899243414e-01   -1.416632682e-01
       28452500   -4.887610078e-01   -1.378455907e-01
       28455000   -4.874636829e-01   -1.341635585e-01
       28457500   -4.861069024e-01   -1.303707361e-01
       28460000   -4.848471880e-01   -1.267324686e-01
       28462500   -4.835432470e-01   -1.230768561e-01
       28465000   -4.821472466e-01   -1.194630936e-01
       28467500   -4.806047082e-01   -1.158844307e-01
       28470000   -4.792279899e-01   -1.121973395e-01
       28472500   -4.778994620e-01   -1.085476205e-01
       28475000   -4.764097631e-01   -1.050550491e-01
       28477500   -4.749515653e-01   -1.015057415e-01
       28480000   -4.734096527e-01   -9.803500026e-02
       28482500   -4.719124138e-01   -9.458931535e-02
       28485000   -4.703735411e-01   -9.119497985e-02
       28487500   -4.687067270e-01   -8.768264949e-02
       28490000   -4.671800137e-01   -8.430450410e-02
       28492500   -4.656262696e-01   -8.098409325e-02
       28495000   -4.640008509e-01   -7.771427929e-02
       28497500   -4.622836113e-01   -7.428391278e-02
       28500000   -4.604948163e-01   -7.103592157e-02
       28502500   -4.589478076e-01   -6.775150448e-02
       28505000   -4.572775662e-01   -6.452806294e-02
       28507500   -4.556536973e-01   -6.141164154e-02
       28510000   -4.539461136e-01   -5.822156742e-02
       28512500   -4.522162080e-01   -5.512405932e-02
       28515000   -4.504572451e-01   -5.197986960e-02
       28517500   -4.485976696e-01   -4.888023809e-02
       28520000   -4.469736814e-01   -4.596631601e-02
       28522500   -4.451622963e-01   -4.283352569e-02
       28525000   -4.433375597e-01   -3.995473310e-02
       28527500   -4.416090846e-01   -3.707045689e-02
       28530000   -4.397762120e-01   -3.403045982e-02
       28532500   -4.378968179e-01   -3.114568442e-02
       28535000   -4.361329079e-01   -2.840051241e-02
       28537500   -4.343178570e-01   -2.550877631e-02
       28540000   -4.325207770e-01   -2.271001227e-02
       28542500   -4.306614399e-01   -1.992661133e-02
       28545000   -4.288266003e-01   -1.731901616e-02
       28547500   -4.269945621e-01   -1.460370049e-02
       28550000   -4.251299798e-01   -1.191614848e-02
       28552500   -4.232468009e-01   -9.328615852e-03
       28555000   -4.213742316e-01   -6.732289679e-03
       28557500   -4.195607007e-01   -4.230733030e-03
       28560000   -4.176039696e-01   -1.759173232e-03
       28562500   -4.156488180e-01    7.899376214e-04
       28565000   -4.137657285e-01    3.378818976e-03
       28567500   -4.119493365e-01    5.725742318e-03
       28570000   -4.100616276e-01    8.073723875e-03
       28572500   -4.082039893e-01    1.040666550e-02
       28575000   -4.062860310e-01    1.267389674e-02
       28577500   -4.043791890e-01    1.502997801e-02
       28580000   -4.025839567e-01    1.730936393e-02
       28582500   -4.006944299e-01    1.954603009e-02
       28585000   -3.988887966e-01    2.168397233e-02
       28587500   -3.969401419e-01    2.384679578e-02
       28590000   -3.950470388e-01    2.599004097e-02
       28592500   -3.932720125e-01    2.806423791e-02
       28595000   -3.912885487e-01    3.019154817e-02
       28597500   -3.895072937e-01    3.226487711e-02
       28600000   -3.877269924e-01    3.421518952e-02
       28602500   -3.859013021e-01    3.615035862e-02
       28605000   -3.841049373e-01    3.810472786e-02
       28607500   -3.822837770e-01    4.006630927e-02
       28610000   -3.805099130e-01    4.201538861e-02
       28612500   -3.787517846e-01    4.379366338e-02
       28615000   -3.770613670e-01    4.558304325e-02
       28617500   -3.753300905e-01    4.745379835e-02
       28620000   -3.735988438e-01    4.937384278e-02
       28622500   -3.719085455e-01    5.095743015e-02
       28625000   -3.701864183e-01    5.282837898e-02
       28627500   -3.687447906e-01    5.448956788e-02
       28630000   -3.669546247e-01    5.614660308e-02
       28632500   -3.653368950e-01    5.762868375e-02
       28635000   -3.637710810e-01    5.926050991e-02
       28637500   -3.622216582e-01    6.086614728e-02
       28640000   -3.606829345e-01    6.228927150e-02
       28642500   -3.588888049e-01    6.401623785e-02
       28645000   -3.574581742e-01    6.542360038e-02
       28647500   -3.560548723e-01    6.697830558e-02
       28650000   -3.545122445e-01    6.835684925e-02
       28652500   -3.531093299e-01    6.994175166e-02
       28655000   -3.515904844e-01    7.130462676e-02
       28657500   -3.503545523e-01    7.268486172e-02
       28660000   -3.489404023e-01    7.407695800e-02
       28662500   -3.475841880e-01    7.546121627e-02
       28665000   -3.462826014e-01    7.684236765e-02
       28667500   -3.449700177e-01    7.812041044e-02
       28670000   -3.437784910e-01    7.938170433e-02
       28672500   -3.424906731e-01    8.079855144e-02
       28675000   -3.412846923e-01    8.199086040e-02
       28677500   -3.401000500e-01    8.320278674e-02
       28680000   -3.389828801e-01    8.441711962e-02
       28682500   -3.380160332e-01    8.562372625e-02
       28685000   -3.367896378e-01    8.693469316e-02
       28687500   -3.358256221e-01    8.813422918e-02
       28690000   -3.348148465e-01    8.943174779e-02
       28692500   -3.337942660e-01    9.059803188e-02
       28695000   -3.329714239e-01    9.165916592e-02
       28697500   -3.319997191e-01    9.286657721e-02
       28700000   -3.311848342e-01    9.399149567e-02
       28702500   -3.303504884e-01    9.525465965e-02
       28705000   -3.295088112e-01    9.647351503e-02
       28707500   -3.288234770e-01    9.750254452e-02
       28710000   -3.280980587e-01    9.864106029e-02
       28712500   -3.275466561e-01    9.989535809e-02
       28715000   -3.267098665e-01    1.009414494e-01
       28717500   -3.263640702e-01    1.021024734e-01
       28720000   -3.256776929e-01    1.032129973e-01
       28722500   -3.252676129e-01    1.044337600e-01
       28725000   -3.247106969e-01    1.056357846e-01
       28727500   -3.244391382e-01    1.068409160e-01
       28730000   -3.240399361e-01    1.078205407e-01
       28732500   -3.236658871e-01    1.091526076e-01
       28735000   -3.235118687e-01    1.103165969e-01
       28737500   -3.230467439e-01    1.115866378e-01
       28740000   -3.229866624e-01    1.128632650e-01
       28742500   -3.228733838e-01    1.141694263e-01
       28745000   -3.228504956e-01    1.153691113e-01
       28747500   -3.227515221e-01    1.166124493e-01
       28750000   -3.227693439e-01    1.179338321e-01
       28752500   -3.230027258e-01    1.192728877e-01
       28755000   -3.228962123e-01    1.206883714e-01
       28757500   -3.230845332e-01    1.219339073e-01
       28760000   -3.233208954e-01    1.235156953e-01
       28762500   -3.234480321e-01    1.248442233e-01
       28765000   -3.237880170e-01    1.263349801e-01
       28767500   -3.239788711e-01    1.278374046e-01
       28770000   -3.242482245e-01    1.292858869e-01
       28772500   -3.246651888e-01    1.309590787e-01
       28775000   -3.249970973e-01    1.326725632e-01
       28777500   -3.254442215e-01    1.342346221e-01
       28780000   -3.259302974e-01    1.359520853e-01
       28782500   -3.264850974e-01    1.377745122e-01
       28785000   -3.270291686e-01    1.395288855e-01
       28787500   -3.274271488e-01    1.412898004e-01
       28790000   -3.280857801e-01    1.432050765e-01
       28792500   -3.284839988e-01    1.451240033e-01
       28795000   -3.289257586e-01    1.471137106e-01
       28797500   -3.298329413e-01    1.492103040e-01
       28800000   -3.304750621e-01    1.512531787e-01
       28802500   -3.312109709e-01    1.534328759e-01
       28805000   -3.319690228e-01    1.556605399e-01
       28807500   -3.328683078e-01    1.579719633e-01
       28810000   -3.335060775e-01    1.602985561e-01
       28812500   -3.345485330e-01    1.625993103e-01
       28815000   -3.354578018e-01    1.651710570e-01
       28817500   -3.363168538e-01    1.676815897e-01
       28820000   -3.372850418e-01    1.700269878e-01
       28822500   -3.382789195e-01    1.728323996e-01
       28825000   -3.391351998e-01    1.757196486e-01
       28827500   -3.402794302e-01    1.786128134e-01
       28830000   -3.412147760e-01    1.813472658e-01
       28832500   -3.421902359e-01    1.843261570e-01
       28835000   -3.433681130e-01    1.874190569e-01
       28837500   -3.443106115e-01    1.904678494e-01
       28840000   -3.454965651e-01    1.939105093e-01
       28842500   -3.464675546e-01    1.969518512e-01
       28845000   -3.475992978e-01    2.005094439e-01
       28847500   -3.485929668e-01    2.038733959e-01
       28850000   -3.495337367e-01    2.074736506e-01
       28852500   -3.506119251e-01    2.110334784e-01
       28855000   -3.515613675e-01    2.148458511e-01
       28857500   -3.525032103e-01    2.185449153e-01
       28860000   -3.531844616e-01    2.225078642e-01
       28862500   -3.542023599e-01    2.264018059e-01
       28865000   -3.549910784e-01    2.305183411e-01
       28867500   -3.558542430e-01    2.346227318e-01
       28870000   -3.566306233e-01    2.389512211e-01
       28872500   -3.574909568e-01    2.433523536e-01
       28875000   -3.580228388e-01    2.478407770e-01
       28877500   -3.587053716e-01    2.523884177e-01
       28880000   -3.591631055e-01    2.569905221e-01
       28882500   -3.598343432e-01    2.616585791e-01
       28885000   -3.603793979e-01    2.664206624e-01
       28887500   -3.606734872e-01    2.714329660e-01
       28890000   -3.610186875e-01    2.763535082e-01
       28892500   -3.613302112e-01    2.812959850e-01
       28895000   -3.615199924e-01    2.865237594e-01
       28897500   -3.618662357e-01    2.915842533e-01
       28900000   -3.618323207e-01    2.969015837e-01
       28902500   -3.618418574e-01    3.024029434e-01
       28905000   -3.616957068e-01    3.078492880e-01
       28907500   -3.614564538e-01    3.133499324e-01
       28910000   -3.611458242e-01    3.191127181e-01
       28912500   -3.606592119e-01    3.249227405e-01
